 v-sweep         vsg_out         vsd_out         id              id_w           
 0.00000000e+00  0.00000000e+00  5.00000000e-02  4.93150494e-14  4.93150494e-09 
 1.00000000e-02  1.00000000e-02  5.00000000e-02  4.93150494e-14  4.93150494e-09 
 2.00000000e-02  2.00000000e-02  5.00000000e-02  4.93150494e-14  4.93150494e-09 
 3.00000000e-02  3.00000000e-02  5.00000000e-02  5.28395669e-14  5.28395669e-09 
 4.00000000e-02  4.00000000e-02  5.00000000e-02  5.63640845e-14  5.63640845e-09 
 5.00000000e-02  5.00000000e-02  5.00000000e-02  4.93150494e-14  4.93150494e-09 
 6.00000000e-02  6.00000000e-02  5.00000000e-02  5.28395669e-14  5.28395669e-09 
 7.00000000e-02  7.00000000e-02  5.00000000e-02  4.93150494e-14  4.93150494e-09 
 8.00000000e-02  8.00000000e-02  5.00000000e-02  5.98886020e-14  5.98886020e-09 
 9.00000000e-02  9.00000000e-02  5.00000000e-02  5.98886020e-14  5.98886020e-09 
 1.00000000e-01  1.00000000e-01  5.00000000e-02  5.63640845e-14  5.63640845e-09 
 1.10000000e-01  1.10000000e-01  5.00000000e-02  6.34131196e-14  6.34131196e-09 
 1.20000000e-01  1.20000000e-01  5.00000000e-02  6.34131196e-14  6.34131196e-09 
 1.30000000e-01  1.30000000e-01  5.00000000e-02  7.39866722e-14  7.39866722e-09 
 1.40000000e-01  1.40000000e-01  5.00000000e-02  7.75111897e-14  7.75111897e-09 
 1.50000000e-01  1.50000000e-01  5.00000000e-02  8.45602248e-14  8.45602248e-09 
 1.60000000e-01  1.60000000e-01  5.00000000e-02  9.86582949e-14  9.86582949e-09 
 1.70000000e-01  1.70000000e-01  5.00000000e-02  1.12756365e-13  1.12756365e-08 
 1.80000000e-01  1.80000000e-01  5.00000000e-02  1.30378953e-13  1.30378953e-08 
 1.90000000e-01  1.90000000e-01  5.00000000e-02  1.55050576e-13  1.55050576e-08 
 2.00000000e-01  2.00000000e-01  5.00000000e-02  1.86771233e-13  1.86771233e-08 
 2.10000000e-01  2.10000000e-01  5.00000000e-02  2.32589961e-13  2.32589961e-08 
 2.20000000e-01  2.20000000e-01  5.00000000e-02  2.85457724e-13  2.85457724e-08 
 2.30000000e-01  2.30000000e-01  5.00000000e-02  3.55948075e-13  3.55948075e-08 
 2.40000000e-01  2.40000000e-01  5.00000000e-02  4.51110049e-13  4.51110049e-08 
 2.50000000e-01  2.50000000e-01  5.00000000e-02  5.77992680e-13  5.77992680e-08 
 2.60000000e-01  2.60000000e-01  5.00000000e-02  7.40120487e-13  7.40120487e-08 
 2.70000000e-01  2.70000000e-01  5.00000000e-02  9.51591539e-13  9.51591539e-08 
 2.80000000e-01  2.80000000e-01  5.00000000e-02  1.23707746e-12  1.23707746e-07 
 2.90000000e-01  2.90000000e-01  5.00000000e-02  1.60010277e-12  1.60010277e-07 
 3.00000000e-01  3.00000000e-01  5.00000000e-02  2.07943715e-12  2.07943715e-07 
 3.10000000e-01  3.10000000e-01  5.00000000e-02  2.71032579e-12  2.71032579e-07 
 3.20000000e-01  3.20000000e-01  5.00000000e-02  3.53506289e-12  3.53506289e-07 
 3.30000000e-01  3.30000000e-01  5.00000000e-02  4.61708978e-12  4.61708978e-07 
 3.40000000e-01  3.40000000e-01  5.00000000e-02  6.03394583e-12  6.03394583e-07 
 3.50000000e-01  3.50000000e-01  5.00000000e-02  7.88431754e-12  7.88431754e-07 
 3.60000000e-01  3.60000000e-01  5.00000000e-02  1.03091856e-11  1.03091856e-06 
 3.70000000e-01  3.70000000e-01  5.00000000e-02  1.34847759e-11  1.34847759e-06 
 3.80000000e-01  3.80000000e-01  5.00000000e-02  1.76437066e-11  1.76437066e-06 
 3.90000000e-01  3.90000000e-01  5.00000000e-02  2.30785126e-11  2.30785126e-06 
 4.00000000e-01  4.00000000e-01  5.00000000e-02  3.01874645e-11  3.01874645e-06 
 4.10000000e-01  4.10000000e-01  5.00000000e-02  3.94816173e-11  3.94816173e-06 
 4.20000000e-01  4.20000000e-01  5.00000000e-02  5.16200557e-11  5.16200557e-06 
 4.30000000e-01  4.30000000e-01  5.00000000e-02  6.74662865e-11  6.74662865e-06 
 4.40000000e-01  4.40000000e-01  5.00000000e-02  8.81552045e-11  8.81552045e-06 
 4.50000000e-01  4.50000000e-01  5.00000000e-02  1.15142435e-10  1.15142435e-05 
 4.60000000e-01  4.60000000e-01  5.00000000e-02  1.50310071e-10  1.50310071e-05 
 4.70000000e-01  4.70000000e-01  5.00000000e-02  1.96100603e-10  1.96100603e-05 
 4.80000000e-01  4.80000000e-01  5.00000000e-02  2.55671999e-10  2.55671999e-05 
 4.90000000e-01  4.90000000e-01  5.00000000e-02  3.33091551e-10  3.33091551e-05 
 5.00000000e-01  5.00000000e-01  5.00000000e-02  4.33582595e-10  4.33582595e-05 
 5.10000000e-01  5.10000000e-01  5.00000000e-02  5.63838190e-10  5.63838190e-05 
 5.20000000e-01  5.20000000e-01  5.00000000e-02  7.32433486e-10  7.32433486e-05 
 5.30000000e-01  5.30000000e-01  5.00000000e-02  9.50280391e-10  9.50280391e-05 
 5.40000000e-01  5.40000000e-01  5.00000000e-02  1.23125493e-09  1.23125493e-04 
 5.50000000e-01  5.50000000e-01  5.00000000e-02  1.59292682e-09  1.59292682e-04 
 5.60000000e-01  5.60000000e-01  5.00000000e-02  2.05744766e-09  2.05744766e-04 
 5.70000000e-01  5.70000000e-01  5.00000000e-02  2.65265056e-09  2.65265056e-04 
 5.80000000e-01  5.80000000e-01  5.00000000e-02  3.41336833e-09  3.41336833e-04 
 5.90000000e-01  5.90000000e-01  5.00000000e-02  4.38299835e-09  4.38299835e-04 
 6.00000000e-01  6.00000000e-01  5.00000000e-02  5.61539525e-09  5.61539525e-04 
 6.10000000e-01  6.10000000e-01  5.00000000e-02  7.17708077e-09  7.17708077e-04 
 6.20000000e-01  6.20000000e-01  5.00000000e-02  9.14990832e-09  9.14990832e-04 
 6.30000000e-01  6.30000000e-01  5.00000000e-02  1.16341222e-08  1.16341222e-03 
 6.40000000e-01  6.40000000e-01  5.00000000e-02  1.47519633e-08  1.47519633e-03 
 6.50000000e-01  6.50000000e-01  5.00000000e-02  1.86517503e-08  1.86517503e-03 
 6.60000000e-01  6.60000000e-01  5.00000000e-02  2.35123208e-08  2.35123208e-03 
 6.70000000e-01  6.70000000e-01  5.00000000e-02  2.95478738e-08  2.95478738e-03 
 6.80000000e-01  6.80000000e-01  5.00000000e-02  3.70125517e-08  3.70125517e-03 
 6.90000000e-01  6.90000000e-01  5.00000000e-02  4.62045569e-08  4.62045569e-03 
 7.00000000e-01  7.00000000e-01  5.00000000e-02  5.74686753e-08  5.74686753e-03 
 7.10000000e-01  7.10000000e-01  5.00000000e-02  7.11963856e-08  7.11963856e-03 
 7.20000000e-01  7.20000000e-01  5.00000000e-02  8.78222045e-08  8.78222045e-03 
 7.30000000e-01  7.30000000e-01  5.00000000e-02  1.07815326e-07  1.07815326e-02 
 7.40000000e-01  7.40000000e-01  5.00000000e-02  1.31665557e-07  1.31665557e-02 
 7.50000000e-01  7.50000000e-01  5.00000000e-02  1.59863706e-07  1.59863706e-02 
 7.60000000e-01  7.60000000e-01  5.00000000e-02  1.92877379e-07  1.92877379e-02 
 7.70000000e-01  7.70000000e-01  5.00000000e-02  2.31124446e-07  2.31124446e-02 
 7.80000000e-01  7.80000000e-01  5.00000000e-02  2.74947440e-07  2.74947440e-02 
 7.90000000e-01  7.90000000e-01  5.00000000e-02  3.24592466e-07  3.24592466e-02 
 8.00000000e-01  8.00000000e-01  5.00000000e-02  3.80195670e-07  3.80195670e-02 
 8.10000000e-01  8.10000000e-01  5.00000000e-02  4.41778987e-07  4.41778987e-02 
 8.20000000e-01  8.20000000e-01  5.00000000e-02  5.09254980e-07  5.09254980e-02 
 8.30000000e-01  8.30000000e-01  5.00000000e-02  5.82439197e-07  5.82439197e-02 
 8.40000000e-01  8.40000000e-01  5.00000000e-02  6.61067335e-07  6.61067335e-02 
 8.50000000e-01  8.50000000e-01  5.00000000e-02  7.44814633e-07  7.44814633e-02 
 8.60000000e-01  8.60000000e-01  5.00000000e-02  8.33311078e-07  8.33311078e-02 
 8.70000000e-01  8.70000000e-01  5.00000000e-02  9.26153965e-07  9.26153965e-02 
 8.80000000e-01  8.80000000e-01  5.00000000e-02  1.02294200e-06  1.02294200e-01 
 8.90000000e-01  8.90000000e-01  5.00000000e-02  1.12327821e-06  1.12327821e-01 
 9.00000000e-01  9.00000000e-01  5.00000000e-02  1.22677840e-06  1.22677840e-01 
 9.10000000e-01  9.10000000e-01  5.00000000e-02  1.33307759e-06  1.33307759e-01 
 9.20000000e-01  9.20000000e-01  5.00000000e-02  1.44183446e-06  1.44183446e-01 
 9.30000000e-01  9.30000000e-01  5.00000000e-02  1.55273378e-06  1.55273378e-01 
 9.40000000e-01  9.40000000e-01  5.00000000e-02  1.66548759e-06  1.66548759e-01 
 9.50000000e-01  9.50000000e-01  5.00000000e-02  1.77983522e-06  1.77983522e-01 
 9.60000000e-01  9.60000000e-01  5.00000000e-02  1.89554253e-06  1.89554253e-01 
 9.70000000e-01  9.70000000e-01  5.00000000e-02  2.01240061e-06  2.01240061e-01 
 9.80000000e-01  9.80000000e-01  5.00000000e-02  2.13022421e-06  2.13022421e-01 
 9.90000000e-01  9.90000000e-01  5.00000000e-02  2.24884978e-06  2.24884978e-01 
 1.00000000e+00  1.00000000e+00  5.00000000e-02  2.36813364e-06  2.36813364e-01 
 1.01000000e+00  1.01000000e+00  5.00000000e-02  2.48795000e-06  2.48795000e-01 
 1.02000000e+00  1.02000000e+00  5.00000000e-02  2.60818904e-06  2.60818904e-01 
 1.03000000e+00  1.03000000e+00  5.00000000e-02  2.72875520e-06  2.72875520e-01 
 1.04000000e+00  1.04000000e+00  5.00000000e-02  2.84956549e-06  2.84956549e-01 
 1.05000000e+00  1.05000000e+00  5.00000000e-02  2.97054793e-06  2.97054793e-01 
 1.06000000e+00  1.06000000e+00  5.00000000e-02  3.09164023e-06  3.09164023e-01 
 1.07000000e+00  1.07000000e+00  5.00000000e-02  3.21278853e-06  3.21278853e-01 
 1.08000000e+00  1.08000000e+00  5.00000000e-02  3.33394623e-06  3.33394623e-01 
 1.09000000e+00  1.09000000e+00  5.00000000e-02  3.45507312e-06  3.45507312e-01 
 1.10000000e+00  1.10000000e+00  5.00000000e-02  3.57613443e-06  3.57613443e-01 
 1.11000000e+00  1.11000000e+00  5.00000000e-02  3.69710015e-06  3.69710015e-01 
 1.12000000e+00  1.12000000e+00  5.00000000e-02  3.81794426e-06  3.81794426e-01 
 1.13000000e+00  1.13000000e+00  5.00000000e-02  3.93864430e-06  3.93864430e-01 
 1.14000000e+00  1.14000000e+00  5.00000000e-02  4.05918080e-06  4.05918080e-01 
 1.15000000e+00  1.15000000e+00  5.00000000e-02  4.17953685e-06  4.17953685e-01 
 1.16000000e+00  1.16000000e+00  5.00000000e-02  4.29969777e-06  4.29969777e-01 
 1.17000000e+00  1.17000000e+00  5.00000000e-02  4.41965075e-06  4.41965075e-01 
 1.18000000e+00  1.18000000e+00  5.00000000e-02  4.53938465e-06  4.53938465e-01 
 1.19000000e+00  1.19000000e+00  5.00000000e-02  4.65888968e-06  4.65888968e-01 
 1.20000000e+00  1.20000000e+00  5.00000000e-02  4.77815730e-06  4.77815730e-01 
 1.21000000e+00  1.21000000e+00  5.00000000e-02  4.89717997e-06  4.89717997e-01 
 1.22000000e+00  1.22000000e+00  5.00000000e-02  5.01595106e-06  5.01595106e-01 
 1.23000000e+00  1.23000000e+00  5.00000000e-02  5.13446468e-06  5.13446468e-01 
 1.24000000e+00  1.24000000e+00  5.00000000e-02  5.25271566e-06  5.25271566e-01 
 1.25000000e+00  1.25000000e+00  5.00000000e-02  5.37069933e-06  5.37069933e-01 
 1.26000000e+00  1.26000000e+00  5.00000000e-02  5.48841158e-06  5.48841158e-01 
 1.27000000e+00  1.27000000e+00  5.00000000e-02  5.60584872e-06  5.60584872e-01 
 1.28000000e+00  1.28000000e+00  5.00000000e-02  5.72300743e-06  5.72300743e-01 
 1.29000000e+00  1.29000000e+00  5.00000000e-02  5.83988472e-06  5.83988472e-01 
 1.30000000e+00  1.30000000e+00  5.00000000e-02  5.95647792e-06  5.95647792e-01 
 1.31000000e+00  1.31000000e+00  5.00000000e-02  6.07278458e-06  6.07278458e-01 
 1.32000000e+00  1.32000000e+00  5.00000000e-02  6.18880250e-06  6.18880250e-01 
 1.33000000e+00  1.33000000e+00  5.00000000e-02  6.30452970e-06  6.30452970e-01 
 1.34000000e+00  1.34000000e+00  5.00000000e-02  6.41996435e-06  6.41996435e-01 
 1.35000000e+00  1.35000000e+00  5.00000000e-02  6.53510479e-06  6.53510479e-01 
 1.36000000e+00  1.36000000e+00  5.00000000e-02  6.64994953e-06  6.64994953e-01 
 1.37000000e+00  1.37000000e+00  5.00000000e-02  6.76449721e-06  6.76449721e-01 
 1.38000000e+00  1.38000000e+00  5.00000000e-02  6.87874653e-06  6.87874653e-01 
 1.39000000e+00  1.39000000e+00  5.00000000e-02  6.99269639e-06  6.99269639e-01 
 1.40000000e+00  1.40000000e+00  5.00000000e-02  7.10634573e-06  7.10634573e-01 
 1.41000000e+00  1.41000000e+00  5.00000000e-02  7.21969361e-06  7.21969361e-01 
 1.42000000e+00  1.42000000e+00  5.00000000e-02  7.33273916e-06  7.33273916e-01 
 1.43000000e+00  1.43000000e+00  5.00000000e-02  7.44548159e-06  7.44548159e-01 
 1.44000000e+00  1.44000000e+00  5.00000000e-02  7.55792019e-06  7.55792019e-01 
 1.45000000e+00  1.45000000e+00  5.00000000e-02  7.67005432e-06  7.67005432e-01 
 1.46000000e+00  1.46000000e+00  5.00000000e-02  7.78188338e-06  7.78188338e-01 
 1.47000000e+00  1.47000000e+00  5.00000000e-02  7.89340686e-06  7.89340686e-01 
 1.48000000e+00  1.48000000e+00  5.00000000e-02  8.00462429e-06  8.00462429e-01 
 1.49000000e+00  1.49000000e+00  5.00000000e-02  8.11553525e-06  8.11553525e-01 
 1.50000000e+00  1.50000000e+00  5.00000000e-02  8.22613938e-06  8.22613938e-01 
 1.51000000e+00  1.51000000e+00  5.00000000e-02  8.33643635e-06  8.33643635e-01 
 1.52000000e+00  1.52000000e+00  5.00000000e-02  8.44642587e-06  8.44642587e-01 
 1.53000000e+00  1.53000000e+00  5.00000000e-02  8.55610773e-06  8.55610773e-01 
 1.54000000e+00  1.54000000e+00  5.00000000e-02  8.66548171e-06  8.66548171e-01 
 1.55000000e+00  1.55000000e+00  5.00000000e-02  8.77454765e-06  8.77454765e-01 
 1.56000000e+00  1.56000000e+00  5.00000000e-02  8.88330543e-06  8.88330543e-01 
 1.57000000e+00  1.57000000e+00  5.00000000e-02  8.99175495e-06  8.99175495e-01 
 1.58000000e+00  1.58000000e+00  5.00000000e-02  9.09989615e-06  9.09989615e-01 
 1.59000000e+00  1.59000000e+00  5.00000000e-02  9.20772899e-06  9.20772899e-01 
 1.60000000e+00  1.60000000e+00  5.00000000e-02  9.31525348e-06  9.31525348e-01 
 1.61000000e+00  1.61000000e+00  5.00000000e-02  9.42246962e-06  9.42246962e-01 
 1.62000000e+00  1.62000000e+00  5.00000000e-02  9.52937748e-06  9.52937748e-01 
 1.63000000e+00  1.63000000e+00  5.00000000e-02  9.63597712e-06  9.63597712e-01 
 1.64000000e+00  1.64000000e+00  5.00000000e-02  9.74226864e-06  9.74226864e-01 
 1.65000000e+00  1.65000000e+00  5.00000000e-02  9.84825217e-06  9.84825217e-01 
 1.66000000e+00  1.66000000e+00  5.00000000e-02  9.95392783e-06  9.95392783e-01 
 1.67000000e+00  1.67000000e+00  5.00000000e-02  1.00592958e-05  1.00592958e+00 
 1.68000000e+00  1.68000000e+00  5.00000000e-02  1.01643562e-05  1.01643562e+00 
 1.69000000e+00  1.69000000e+00  5.00000000e-02  1.02691094e-05  1.02691094e+00 
 1.70000000e+00  1.70000000e+00  5.00000000e-02  1.03735554e-05  1.03735554e+00 
 1.71000000e+00  1.71000000e+00  5.00000000e-02  1.04776945e-05  1.04776945e+00 
 1.72000000e+00  1.72000000e+00  5.00000000e-02  1.05815271e-05  1.05815271e+00 
 1.73000000e+00  1.73000000e+00  5.00000000e-02  1.06850532e-05  1.06850532e+00 
 1.74000000e+00  1.74000000e+00  5.00000000e-02  1.07882734e-05  1.07882734e+00 
 1.75000000e+00  1.75000000e+00  5.00000000e-02  1.08911877e-05  1.08911877e+00 
 1.76000000e+00  1.76000000e+00  5.00000000e-02  1.09937966e-05  1.09937966e+00 
 1.77000000e+00  1.77000000e+00  5.00000000e-02  1.10961003e-05  1.10961003e+00 
 1.78000000e+00  1.78000000e+00  5.00000000e-02  1.11980993e-05  1.11980993e+00 
 1.79000000e+00  1.79000000e+00  5.00000000e-02  1.12997937e-05  1.12997937e+00 
 1.80000000e+00  1.80000000e+00  5.00000000e-02  1.14011841e-05  1.14011841e+00 
 1.81000000e+00  1.81000000e+00  5.00000000e-02  1.15022708e-05  1.15022708e+00 
 1.82000000e+00  1.82000000e+00  5.00000000e-02  1.16030541e-05  1.16030541e+00 
 1.83000000e+00  1.83000000e+00  5.00000000e-02  1.17035345e-05  1.17035345e+00 
 1.84000000e+00  1.84000000e+00  5.00000000e-02  1.18037123e-05  1.18037123e+00 
 1.85000000e+00  1.85000000e+00  5.00000000e-02  1.19035881e-05  1.19035881e+00 
 1.86000000e+00  1.86000000e+00  5.00000000e-02  1.20031621e-05  1.20031621e+00 
 1.87000000e+00  1.87000000e+00  5.00000000e-02  1.21024348e-05  1.21024348e+00 
 1.88000000e+00  1.88000000e+00  5.00000000e-02  1.22014067e-05  1.22014067e+00 
 1.89000000e+00  1.89000000e+00  5.00000000e-02  1.23000782e-05  1.23000782e+00 
 1.90000000e+00  1.90000000e+00  5.00000000e-02  1.23984498e-05  1.23984498e+00 
 1.91000000e+00  1.91000000e+00  5.00000000e-02  1.24965219e-05  1.24965219e+00 
 1.92000000e+00  1.92000000e+00  5.00000000e-02  1.25942950e-05  1.25942950e+00 
 1.93000000e+00  1.93000000e+00  5.00000000e-02  1.26917696e-05  1.26917696e+00 
 1.94000000e+00  1.94000000e+00  5.00000000e-02  1.27889462e-05  1.27889462e+00 
 1.95000000e+00  1.95000000e+00  5.00000000e-02  1.28858252e-05  1.28858252e+00 
 1.96000000e+00  1.96000000e+00  5.00000000e-02  1.29824072e-05  1.29824072e+00 
 1.97000000e+00  1.97000000e+00  5.00000000e-02  1.30786926e-05  1.30786926e+00 
 1.98000000e+00  1.98000000e+00  5.00000000e-02  1.31746820e-05  1.31746820e+00 
 1.99000000e+00  1.99000000e+00  5.00000000e-02  1.32703759e-05  1.32703759e+00 
 2.00000000e+00  2.00000000e+00  5.00000000e-02  1.33657749e-05  1.33657749e+00 
 2.01000000e+00  2.01000000e+00  5.00000000e-02  1.34608793e-05  1.34608793e+00 
 2.02000000e+00  2.02000000e+00  5.00000000e-02  1.35556899e-05  1.35556899e+00 
 2.03000000e+00  2.03000000e+00  5.00000000e-02  1.36502070e-05  1.36502070e+00 
 2.04000000e+00  2.04000000e+00  5.00000000e-02  1.37444313e-05  1.37444313e+00 
 2.05000000e+00  2.05000000e+00  5.00000000e-02  1.38383633e-05  1.38383633e+00 
 2.06000000e+00  2.06000000e+00  5.00000000e-02  1.39320035e-05  1.39320035e+00 
 2.07000000e+00  2.07000000e+00  5.00000000e-02  1.40253525e-05  1.40253525e+00 
 2.08000000e+00  2.08000000e+00  5.00000000e-02  1.41184109e-05  1.41184109e+00 
 2.09000000e+00  2.09000000e+00  5.00000000e-02  1.42111793e-05  1.42111793e+00 
 2.10000000e+00  2.10000000e+00  5.00000000e-02  1.43036581e-05  1.43036581e+00 
 2.11000000e+00  2.11000000e+00  5.00000000e-02  1.43958479e-05  1.43958479e+00 
 2.12000000e+00  2.12000000e+00  5.00000000e-02  1.44877494e-05  1.44877494e+00 
 2.13000000e+00  2.13000000e+00  5.00000000e-02  1.45793632e-05  1.45793632e+00 
 2.14000000e+00  2.14000000e+00  5.00000000e-02  1.46706897e-05  1.46706897e+00 
 2.15000000e+00  2.15000000e+00  5.00000000e-02  1.47617296e-05  1.47617296e+00 
 2.16000000e+00  2.16000000e+00  5.00000000e-02  1.48524834e-05  1.48524834e+00 
 2.17000000e+00  2.17000000e+00  5.00000000e-02  1.49429518e-05  1.49429518e+00 
 2.18000000e+00  2.18000000e+00  5.00000000e-02  1.50331354e-05  1.50331354e+00 
 2.19000000e+00  2.19000000e+00  5.00000000e-02  1.51230347e-05  1.51230347e+00 
 2.20000000e+00  2.20000000e+00  5.00000000e-02  1.52126503e-05  1.52126503e+00 
 2.21000000e+00  2.21000000e+00  5.00000000e-02  1.53019829e-05  1.53019829e+00 
 2.22000000e+00  2.22000000e+00  5.00000000e-02  1.53910330e-05  1.53910330e+00 
 2.23000000e+00  2.23000000e+00  5.00000000e-02  1.54798013e-05  1.54798013e+00 
 2.24000000e+00  2.24000000e+00  5.00000000e-02  1.55682884e-05  1.55682884e+00 
 2.25000000e+00  2.25000000e+00  5.00000000e-02  1.56564948e-05  1.56564948e+00 
 2.26000000e+00  2.26000000e+00  5.00000000e-02  1.57444211e-05  1.57444211e+00 
 2.27000000e+00  2.27000000e+00  5.00000000e-02  1.58320681e-05  1.58320681e+00 
 2.28000000e+00  2.28000000e+00  5.00000000e-02  1.59194363e-05  1.59194363e+00 
 2.29000000e+00  2.29000000e+00  5.00000000e-02  1.60065263e-05  1.60065263e+00 
 2.30000000e+00  2.30000000e+00  5.00000000e-02  1.60933387e-05  1.60933387e+00 
 2.31000000e+00  2.31000000e+00  5.00000000e-02  1.61798743e-05  1.61798743e+00 
 2.32000000e+00  2.32000000e+00  5.00000000e-02  1.62661335e-05  1.62661335e+00 
 2.33000000e+00  2.33000000e+00  5.00000000e-02  1.63521170e-05  1.63521170e+00 
 2.34000000e+00  2.34000000e+00  5.00000000e-02  1.64378254e-05  1.64378254e+00 
 2.35000000e+00  2.35000000e+00  5.00000000e-02  1.65232594e-05  1.65232594e+00 
 2.36000000e+00  2.36000000e+00  5.00000000e-02  1.66084197e-05  1.66084197e+00 
 2.37000000e+00  2.37000000e+00  5.00000000e-02  1.66933067e-05  1.66933067e+00 
 2.38000000e+00  2.38000000e+00  5.00000000e-02  1.67779212e-05  1.67779212e+00 
 2.39000000e+00  2.39000000e+00  5.00000000e-02  1.68622637e-05  1.68622637e+00 
 2.40000000e+00  2.40000000e+00  5.00000000e-02  1.69463350e-05  1.69463350e+00 
 2.41000000e+00  2.41000000e+00  5.00000000e-02  1.70301357e-05  1.70301357e+00 
 2.42000000e+00  2.42000000e+00  5.00000000e-02  1.71136663e-05  1.71136663e+00 
 2.43000000e+00  2.43000000e+00  5.00000000e-02  1.71969275e-05  1.71969275e+00 
 2.44000000e+00  2.44000000e+00  5.00000000e-02  1.72799200e-05  1.72799200e+00 
