 v-sweep         vsg_out         vsd_out         id              id_w           
 0.00000000e+00  0.00000000e+00  5.00000000e-02  5.28395669e-14  5.28395669e-09 
 1.00000000e-02  1.00000000e-02  5.00000000e-02  5.28395669e-14  5.28395669e-09 
 2.00000000e-02  2.00000000e-02  5.00000000e-02  5.28395669e-14  5.28395669e-09 
 3.00000000e-02  3.00000000e-02  5.00000000e-02  4.57905319e-14  4.57905319e-09 
 4.00000000e-02  4.00000000e-02  5.00000000e-02  5.28395669e-14  5.28395669e-09 
 5.00000000e-02  5.00000000e-02  5.00000000e-02  5.63640845e-14  5.63640845e-09 
 6.00000000e-02  6.00000000e-02  5.00000000e-02  4.93150494e-14  4.93150494e-09 
 7.00000000e-02  7.00000000e-02  5.00000000e-02  5.28395669e-14  5.28395669e-09 
 8.00000000e-02  8.00000000e-02  5.00000000e-02  5.98886020e-14  5.98886020e-09 
 9.00000000e-02  9.00000000e-02  5.00000000e-02  5.98886020e-14  5.98886020e-09 
 1.00000000e-01  1.00000000e-01  5.00000000e-02  5.98886020e-14  5.98886020e-09 
 1.10000000e-01  1.10000000e-01  5.00000000e-02  5.63640845e-14  5.63640845e-09 
 1.20000000e-01  1.20000000e-01  5.00000000e-02  6.34131196e-14  6.34131196e-09 
 1.30000000e-01  1.30000000e-01  5.00000000e-02  7.04621546e-14  7.04621546e-09 
 1.40000000e-01  1.40000000e-01  5.00000000e-02  7.39866722e-14  7.39866722e-09 
 1.50000000e-01  1.50000000e-01  5.00000000e-02  7.39866722e-14  7.39866722e-09 
 1.60000000e-01  1.60000000e-01  5.00000000e-02  8.80847423e-14  8.80847423e-09 
 1.70000000e-01  1.70000000e-01  5.00000000e-02  9.86582949e-14  9.86582949e-09 
 1.80000000e-01  1.80000000e-01  5.00000000e-02  1.12756365e-13  1.12756365e-08 
 1.90000000e-01  1.90000000e-01  5.00000000e-02  1.33903470e-13  1.33903470e-08 
 2.00000000e-01  2.00000000e-01  5.00000000e-02  1.55050576e-13  1.55050576e-08 
 2.10000000e-01  2.10000000e-01  5.00000000e-02  1.90295751e-13  1.90295751e-08 
 2.20000000e-01  2.20000000e-01  5.00000000e-02  2.36114479e-13  2.36114479e-08 
 2.30000000e-01  2.30000000e-01  5.00000000e-02  2.88982242e-13  2.88982242e-08 
 2.40000000e-01  2.40000000e-01  5.00000000e-02  3.66521628e-13  3.66521628e-08 
 2.50000000e-01  2.50000000e-01  5.00000000e-02  4.61683601e-13  4.61683601e-08 
 2.60000000e-01  2.60000000e-01  5.00000000e-02  5.95615268e-13  5.95615268e-08 
 2.70000000e-01  2.70000000e-01  5.00000000e-02  7.57743075e-13  7.57743075e-08 
 2.80000000e-01  2.80000000e-01  5.00000000e-02  9.76263162e-13  9.76263162e-08 
 2.90000000e-01  2.90000000e-01  5.00000000e-02  1.26879812e-12  1.26879812e-07 
 3.00000000e-01  3.00000000e-01  5.00000000e-02  1.64592149e-12  1.64592149e-07 
 3.10000000e-01  3.10000000e-01  5.00000000e-02  2.13935395e-12  2.13935395e-07 
 3.20000000e-01  3.20000000e-01  5.00000000e-02  2.78786518e-12  2.78786518e-07 
 3.30000000e-01  3.30000000e-01  5.00000000e-02  3.63374939e-12  3.63374939e-07 
 3.40000000e-01  3.40000000e-01  5.00000000e-02  4.74749693e-12  4.74749693e-07 
 3.50000000e-01  3.50000000e-01  5.00000000e-02  6.20664719e-12  6.20664719e-07 
 3.60000000e-01  3.60000000e-01  5.00000000e-02  8.10988666e-12  8.10988666e-07 
 3.70000000e-01  3.70000000e-01  5.00000000e-02  1.05981960e-11  1.05981960e-06 
 3.80000000e-01  3.80000000e-01  5.00000000e-02  1.38654238e-11  1.38654238e-06 
 3.90000000e-01  3.90000000e-01  5.00000000e-02  1.81300900e-11  1.81300900e-06 
 4.00000000e-01  4.00000000e-01  5.00000000e-02  2.37129258e-11  2.37129258e-06 
 4.10000000e-01  4.10000000e-01  5.00000000e-02  3.09981036e-11  3.09981036e-06 
 4.20000000e-01  4.20000000e-01  5.00000000e-02  4.05283990e-11  4.05283990e-06 
 4.30000000e-01  4.30000000e-01  5.00000000e-02  5.29664214e-11  5.29664214e-06 
 4.40000000e-01  4.40000000e-01  5.00000000e-02  6.91968246e-11  6.91968246e-06 
 4.50000000e-01  4.50000000e-01  5.00000000e-02  9.03615525e-11  9.03615525e-06 
 4.60000000e-01  4.60000000e-01  5.00000000e-02  1.17930329e-10  1.17930329e-05 
 4.70000000e-01  4.70000000e-01  5.00000000e-02  1.53827540e-10  1.53827540e-05 
 4.80000000e-01  4.80000000e-01  5.00000000e-02  2.00509775e-10  2.00509775e-05 
 4.90000000e-01  4.90000000e-01  5.00000000e-02  2.61156148e-10  2.61156148e-05 
 5.00000000e-01  5.00000000e-01  5.00000000e-02  3.39848051e-10  3.39848051e-05 
 5.10000000e-01  5.10000000e-01  5.00000000e-02  4.41805294e-10  4.41805294e-05 
 5.20000000e-01  5.20000000e-01  5.00000000e-02  5.73713888e-10  5.73713888e-05 
 5.30000000e-01  5.30000000e-01  5.00000000e-02  7.44064394e-10  7.44064394e-05 
 5.40000000e-01  5.40000000e-01  5.00000000e-02  9.63652410e-10  9.63652410e-05 
 5.50000000e-01  5.50000000e-01  5.00000000e-02  1.24613544e-09  1.24613544e-04 
 5.60000000e-01  5.60000000e-01  5.00000000e-02  1.60870256e-09  1.60870256e-04 
 5.70000000e-01  5.70000000e-01  5.00000000e-02  2.07295906e-09  2.07295906e-04 
 5.80000000e-01  5.80000000e-01  5.00000000e-02  2.66586045e-09  2.66586045e-04 
 5.90000000e-01  5.90000000e-01  5.00000000e-02  3.42099891e-09  3.42099891e-04 
 6.00000000e-01  6.00000000e-01  5.00000000e-02  4.37999193e-09  4.37999193e-04 
 6.10000000e-01  6.10000000e-01  5.00000000e-02  5.59421290e-09  5.59421290e-04 
 6.20000000e-01  6.20000000e-01  5.00000000e-02  7.12680705e-09  7.12680705e-04 
 6.30000000e-01  6.30000000e-01  5.00000000e-02  9.05503535e-09  9.05503535e-04 
 6.40000000e-01  6.40000000e-01  5.00000000e-02  1.14730518e-08  1.14730518e-03 
 6.50000000e-01  6.50000000e-01  5.00000000e-02  1.44949378e-08  1.44949378e-03 
 6.60000000e-01  6.60000000e-01  5.00000000e-02  1.82581357e-08  1.82581357e-03 
 6.70000000e-01  6.70000000e-01  5.00000000e-02  2.29269901e-08  2.29269901e-03 
 6.80000000e-01  6.80000000e-01  5.00000000e-02  2.86961706e-08  2.86961706e-03 
 6.90000000e-01  6.90000000e-01  5.00000000e-02  3.57934846e-08  3.57934846e-03 
 7.00000000e-01  7.00000000e-01  5.00000000e-02  4.44815507e-08  4.44815507e-03 
 7.10000000e-01  7.10000000e-01  5.00000000e-02  5.50573590e-08  5.50573590e-03 
 7.20000000e-01  7.20000000e-01  5.00000000e-02  6.78490103e-08  6.78490103e-03 
 7.30000000e-01  7.30000000e-01  5.00000000e-02  8.32087203e-08  8.32087203e-03 
 7.40000000e-01  7.40000000e-01  5.00000000e-02  1.01501671e-07  1.01501671e-02 
 7.50000000e-01  7.50000000e-01  5.00000000e-02  1.23090751e-07  1.23090751e-02 
 7.60000000e-01  7.60000000e-01  5.00000000e-02  1.48318180e-07  1.48318180e-02 
 7.70000000e-01  7.70000000e-01  5.00000000e-02  1.77485684e-07  1.77485684e-02 
 7.80000000e-01  7.80000000e-01  5.00000000e-02  2.10835913e-07  2.10835913e-02 
 7.90000000e-01  7.90000000e-01  5.00000000e-02  2.48537540e-07  2.48537540e-02 
 8.00000000e-01  8.00000000e-01  5.00000000e-02  2.90676298e-07  2.90676298e-02 
 8.10000000e-01  8.10000000e-01  5.00000000e-02  3.37253037e-07  3.37253037e-02 
 8.20000000e-01  8.20000000e-01  5.00000000e-02  3.88188402e-07  3.88188402e-02 
 8.30000000e-01  8.30000000e-01  5.00000000e-02  4.43332933e-07  4.43332933e-02 
 8.40000000e-01  8.40000000e-01  5.00000000e-02  5.02480297e-07  5.02480297e-02 
 8.50000000e-01  8.50000000e-01  5.00000000e-02  5.65381981e-07  5.65381981e-02 
 8.60000000e-01  8.60000000e-01  5.00000000e-02  6.31758483e-07  6.31758483e-02 
 8.70000000e-01  8.70000000e-01  5.00000000e-02  7.01308422e-07  7.01308422e-02 
 8.80000000e-01  8.80000000e-01  5.00000000e-02  7.73733596e-07  7.73733596e-02 
 8.90000000e-01  8.90000000e-01  5.00000000e-02  8.48740753e-07  8.48740753e-02 
 9.00000000e-01  9.00000000e-01  5.00000000e-02  9.26047373e-07  9.26047373e-02 
 9.10000000e-01  9.10000000e-01  5.00000000e-02  1.00538616e-06  1.00538616e-01 
 9.20000000e-01  9.20000000e-01  5.00000000e-02  1.08650794e-06  1.08650794e-01 
 9.30000000e-01  9.30000000e-01  5.00000000e-02  1.16918327e-06  1.16918327e-01 
 9.40000000e-01  9.40000000e-01  5.00000000e-02  1.25320303e-06  1.25320303e-01 
 9.50000000e-01  9.50000000e-01  5.00000000e-02  1.33837831e-06  1.33837831e-01 
 9.60000000e-01  9.60000000e-01  5.00000000e-02  1.42453975e-06  1.42453975e-01 
 9.70000000e-01  9.70000000e-01  5.00000000e-02  1.51153645e-06  1.51153645e-01 
 9.80000000e-01  9.80000000e-01  5.00000000e-02  1.59923473e-06  1.59923473e-01 
 9.90000000e-01  9.90000000e-01  5.00000000e-02  1.68751670e-06  1.68751670e-01 
 1.00000000e+00  1.00000000e+00  5.00000000e-02  1.77627889e-06  1.77627889e-01 
 1.01000000e+00  1.01000000e+00  5.00000000e-02  1.86543072e-06  1.86543072e-01 
 1.02000000e+00  1.02000000e+00  5.00000000e-02  1.95489317e-06  1.95489317e-01 
 1.03000000e+00  1.03000000e+00  5.00000000e-02  2.04459748e-06  2.04459748e-01 
 1.04000000e+00  1.04000000e+00  5.00000000e-02  2.13448392e-06  2.13448392e-01 
 1.05000000e+00  1.05000000e+00  5.00000000e-02  2.22450071e-06  2.22450071e-01 
 1.06000000e+00  1.06000000e+00  5.00000000e-02  2.31460299e-06  2.31460299e-01 
 1.07000000e+00  1.07000000e+00  5.00000000e-02  2.40475194e-06  2.40475194e-01 
 1.08000000e+00  1.08000000e+00  5.00000000e-02  2.49491398e-06  2.49491398e-01 
 1.09000000e+00  1.09000000e+00  5.00000000e-02  2.58506009e-06  2.58506009e-01 
 1.10000000e+00  1.10000000e+00  5.00000000e-02  2.67516515e-06  2.67516515e-01 
 1.11000000e+00  1.11000000e+00  5.00000000e-02  2.76520743e-06  2.76520743e-01 
 1.12000000e+00  1.12000000e+00  5.00000000e-02  2.85516812e-06  2.85516812e-01 
 1.13000000e+00  1.13000000e+00  5.00000000e-02  2.94503089e-06  2.94503089e-01 
 1.14000000e+00  1.14000000e+00  5.00000000e-02  3.03478158e-06  3.03478158e-01 
 1.15000000e+00  1.15000000e+00  5.00000000e-02  3.12440787e-06  3.12440787e-01 
 1.16000000e+00  1.16000000e+00  5.00000000e-02  3.21389903e-06  3.21389903e-01 
 1.17000000e+00  1.17000000e+00  5.00000000e-02  3.30324569e-06  3.30324569e-01 
 1.18000000e+00  1.18000000e+00  5.00000000e-02  3.39243965e-06  3.39243965e-01 
 1.19000000e+00  1.19000000e+00  5.00000000e-02  3.48147371e-06  3.48147371e-01 
 1.20000000e+00  1.20000000e+00  5.00000000e-02  3.57034155e-06  3.57034155e-01 
 1.21000000e+00  1.21000000e+00  5.00000000e-02  3.65903757e-06  3.65903757e-01 
 1.22000000e+00  1.22000000e+00  5.00000000e-02  3.74755684e-06  3.74755684e-01 
 1.23000000e+00  1.23000000e+00  5.00000000e-02  3.83589495e-06  3.83589495e-01 
 1.24000000e+00  1.24000000e+00  5.00000000e-02  3.92404801e-06  3.92404801e-01 
 1.25000000e+00  1.25000000e+00  5.00000000e-02  4.01201251e-06  4.01201251e-01 
 1.26000000e+00  1.26000000e+00  5.00000000e-02  4.09978533e-06  4.09978533e-01 
 1.27000000e+00  1.27000000e+00  5.00000000e-02  4.18736365e-06  4.18736365e-01 
 1.28000000e+00  1.28000000e+00  5.00000000e-02  4.27474494e-06  4.27474494e-01 
 1.29000000e+00  1.29000000e+00  5.00000000e-02  4.36192689e-06  4.36192689e-01 
 1.30000000e+00  1.30000000e+00  5.00000000e-02  4.44890743e-06  4.44890743e-01 
 1.31000000e+00  1.31000000e+00  5.00000000e-02  4.53568466e-06  4.53568466e-01 
 1.32000000e+00  1.32000000e+00  5.00000000e-02  4.62225686e-06  4.62225686e-01 
 1.33000000e+00  1.33000000e+00  5.00000000e-02  4.70862244e-06  4.70862244e-01 
 1.34000000e+00  1.34000000e+00  5.00000000e-02  4.79477999e-06  4.79477999e-01 
 1.35000000e+00  1.35000000e+00  5.00000000e-02  4.88072816e-06  4.88072816e-01 
 1.36000000e+00  1.36000000e+00  5.00000000e-02  4.96646575e-06  4.96646575e-01 
 1.37000000e+00  1.37000000e+00  5.00000000e-02  5.05199165e-06  5.05199165e-01 
 1.38000000e+00  1.38000000e+00  5.00000000e-02  5.13730482e-06  5.13730482e-01 
 1.39000000e+00  1.39000000e+00  5.00000000e-02  5.22240434e-06  5.22240434e-01 
 1.40000000e+00  1.40000000e+00  5.00000000e-02  5.30728932e-06  5.30728932e-01 
 1.41000000e+00  1.41000000e+00  5.00000000e-02  5.39195897e-06  5.39195897e-01 
 1.42000000e+00  1.42000000e+00  5.00000000e-02  5.47641255e-06  5.47641255e-01 
 1.43000000e+00  1.43000000e+00  5.00000000e-02  5.56064940e-06  5.56064940e-01 
 1.44000000e+00  1.44000000e+00  5.00000000e-02  5.64466888e-06  5.64466888e-01 
 1.45000000e+00  1.45000000e+00  5.00000000e-02  5.72847042e-06  5.72847042e-01 
 1.46000000e+00  1.46000000e+00  5.00000000e-02  5.81205351e-06  5.81205351e-01 
 1.47000000e+00  1.47000000e+00  5.00000000e-02  5.89541764e-06  5.89541764e-01 
 1.48000000e+00  1.48000000e+00  5.00000000e-02  5.97856240e-06  5.97856240e-01 
 1.49000000e+00  1.49000000e+00  5.00000000e-02  6.06148739e-06  6.06148739e-01 
 1.50000000e+00  1.50000000e+00  5.00000000e-02  6.14419222e-06  6.14419222e-01 
 1.51000000e+00  1.51000000e+00  5.00000000e-02  6.22667660e-06  6.22667660e-01 
 1.52000000e+00  1.52000000e+00  5.00000000e-02  6.30894022e-06  6.30894022e-01 
 1.53000000e+00  1.53000000e+00  5.00000000e-02  6.39098280e-06  6.39098280e-01 
 1.54000000e+00  1.54000000e+00  5.00000000e-02  6.47280413e-06  6.47280413e-01 
 1.55000000e+00  1.55000000e+00  5.00000000e-02  6.55440399e-06  6.55440399e-01 
 1.56000000e+00  1.56000000e+00  5.00000000e-02  6.63578220e-06  6.63578220e-01 
 1.57000000e+00  1.57000000e+00  5.00000000e-02  6.71693862e-06  6.71693862e-01 
 1.58000000e+00  1.58000000e+00  5.00000000e-02  6.79787310e-06  6.79787310e-01 
 1.59000000e+00  1.59000000e+00  5.00000000e-02  6.87858554e-06  6.87858554e-01 
 1.60000000e+00  1.60000000e+00  5.00000000e-02  6.95907585e-06  6.95907585e-01 
 1.61000000e+00  1.61000000e+00  5.00000000e-02  7.03934399e-06  7.03934399e-01 
 1.62000000e+00  1.62000000e+00  5.00000000e-02  7.11938987e-06  7.11938987e-01 
 1.63000000e+00  1.63000000e+00  5.00000000e-02  7.19921349e-06  7.19921349e-01 
 1.64000000e+00  1.64000000e+00  5.00000000e-02  7.27881485e-06  7.27881485e-01 
 1.65000000e+00  1.65000000e+00  5.00000000e-02  7.35819393e-06  7.35819393e-01 
 1.66000000e+00  1.66000000e+00  5.00000000e-02  7.43735078e-06  7.43735078e-01 
 1.67000000e+00  1.67000000e+00  5.00000000e-02  7.51628544e-06  7.51628544e-01 
 1.68000000e+00  1.68000000e+00  5.00000000e-02  7.59499794e-06  7.59499794e-01 
 1.69000000e+00  1.69000000e+00  5.00000000e-02  7.67348838e-06  7.67348838e-01 
 1.70000000e+00  1.70000000e+00  5.00000000e-02  7.75175683e-06  7.75175683e-01 
 1.71000000e+00  1.71000000e+00  5.00000000e-02  7.82980339e-06  7.82980339e-01 
 1.72000000e+00  1.72000000e+00  5.00000000e-02  7.90762817e-06  7.90762817e-01 
 1.73000000e+00  1.73000000e+00  5.00000000e-02  7.98523129e-06  7.98523129e-01 
 1.74000000e+00  1.74000000e+00  5.00000000e-02  8.06261289e-06  8.06261289e-01 
 1.75000000e+00  1.75000000e+00  5.00000000e-02  8.13977312e-06  8.13977312e-01 
 1.76000000e+00  1.76000000e+00  5.00000000e-02  8.21671212e-06  8.21671212e-01 
 1.77000000e+00  1.77000000e+00  5.00000000e-02  8.29343007e-06  8.29343007e-01 
 1.78000000e+00  1.78000000e+00  5.00000000e-02  8.36992714e-06  8.36992714e-01 
 1.79000000e+00  1.79000000e+00  5.00000000e-02  8.44620353e-06  8.44620353e-01 
 1.80000000e+00  1.80000000e+00  5.00000000e-02  8.52225942e-06  8.52225942e-01 
 1.81000000e+00  1.81000000e+00  5.00000000e-02  8.59809503e-06  8.59809503e-01 
 1.82000000e+00  1.82000000e+00  5.00000000e-02  8.67371055e-06  8.67371055e-01 
 1.83000000e+00  1.83000000e+00  5.00000000e-02  8.74910623e-06  8.74910623e-01 
 1.84000000e+00  1.84000000e+00  5.00000000e-02  8.82428229e-06  8.82428229e-01 
 1.85000000e+00  1.85000000e+00  5.00000000e-02  8.89923895e-06  8.89923895e-01 
 1.86000000e+00  1.86000000e+00  5.00000000e-02  8.97397649e-06  8.97397649e-01 
 1.87000000e+00  1.87000000e+00  5.00000000e-02  9.04849513e-06  9.04849513e-01 
 1.88000000e+00  1.88000000e+00  5.00000000e-02  9.12279514e-06  9.12279514e-01 
 1.89000000e+00  1.89000000e+00  5.00000000e-02  9.19687679e-06  9.19687679e-01 
 1.90000000e+00  1.90000000e+00  5.00000000e-02  9.27074035e-06  9.27074035e-01 
 1.91000000e+00  1.91000000e+00  5.00000000e-02  9.34438609e-06  9.34438609e-01 
 1.92000000e+00  1.92000000e+00  5.00000000e-02  9.41781431e-06  9.41781431e-01 
 1.93000000e+00  1.93000000e+00  5.00000000e-02  9.49102529e-06  9.49102529e-01 
 1.94000000e+00  1.94000000e+00  5.00000000e-02  9.56401932e-06  9.56401932e-01 
 1.95000000e+00  1.95000000e+00  5.00000000e-02  9.63679672e-06  9.63679672e-01 
 1.96000000e+00  1.96000000e+00  5.00000000e-02  9.70935778e-06  9.70935778e-01 
 1.97000000e+00  1.97000000e+00  5.00000000e-02  9.78170281e-06  9.78170281e-01 
 1.98000000e+00  1.98000000e+00  5.00000000e-02  9.85383213e-06  9.85383213e-01 
 1.99000000e+00  1.99000000e+00  5.00000000e-02  9.92574607e-06  9.92574607e-01 
 2.00000000e+00  2.00000000e+00  5.00000000e-02  9.99744495e-06  9.99744495e-01 
 2.01000000e+00  2.01000000e+00  5.00000000e-02  1.00689291e-05  1.00689291e+00 
 2.02000000e+00  2.02000000e+00  5.00000000e-02  1.01401988e-05  1.01401988e+00 
 2.03000000e+00  2.03000000e+00  5.00000000e-02  1.02112545e-05  1.02112545e+00 
 2.04000000e+00  2.04000000e+00  5.00000000e-02  1.02820965e-05  1.02820965e+00 
 2.05000000e+00  2.05000000e+00  5.00000000e-02  1.03527251e-05  1.03527251e+00 
 2.06000000e+00  2.06000000e+00  5.00000000e-02  1.04231407e-05  1.04231407e+00 
 2.07000000e+00  2.07000000e+00  5.00000000e-02  1.04933436e-05  1.04933436e+00 
 2.08000000e+00  2.08000000e+00  5.00000000e-02  1.05633342e-05  1.05633342e+00 
 2.09000000e+00  2.09000000e+00  5.00000000e-02  1.06331128e-05  1.06331128e+00 
 2.10000000e+00  2.10000000e+00  5.00000000e-02  1.07026799e-05  1.07026799e+00 
 2.11000000e+00  2.11000000e+00  5.00000000e-02  1.07720357e-05  1.07720357e+00 
 2.12000000e+00  2.12000000e+00  5.00000000e-02  1.08411807e-05  1.08411807e+00 
 2.13000000e+00  2.13000000e+00  5.00000000e-02  1.09101152e-05  1.09101152e+00 
 2.14000000e+00  2.14000000e+00  5.00000000e-02  1.09788396e-05  1.09788396e+00 
 2.15000000e+00  2.15000000e+00  5.00000000e-02  1.10473543e-05  1.10473543e+00 
 2.16000000e+00  2.16000000e+00  5.00000000e-02  1.11156597e-05  1.11156597e+00 
 2.17000000e+00  2.17000000e+00  5.00000000e-02  1.11837560e-05  1.11837560e+00 
 2.18000000e+00  2.18000000e+00  5.00000000e-02  1.12516438e-05  1.12516438e+00 
 2.19000000e+00  2.19000000e+00  5.00000000e-02  1.13193234e-05  1.13193234e+00 
 2.20000000e+00  2.20000000e+00  5.00000000e-02  1.13867953e-05  1.13867953e+00 
 2.21000000e+00  2.21000000e+00  5.00000000e-02  1.14540597e-05  1.14540597e+00 
 2.22000000e+00  2.22000000e+00  5.00000000e-02  1.15211171e-05  1.15211171e+00 
 2.23000000e+00  2.23000000e+00  5.00000000e-02  1.15879679e-05  1.15879679e+00 
 2.24000000e+00  2.24000000e+00  5.00000000e-02  1.16546125e-05  1.16546125e+00 
 2.25000000e+00  2.25000000e+00  5.00000000e-02  1.17210512e-05  1.17210512e+00 
 2.26000000e+00  2.26000000e+00  5.00000000e-02  1.17872846e-05  1.17872846e+00 
 2.27000000e+00  2.27000000e+00  5.00000000e-02  1.18533130e-05  1.18533130e+00 
 2.28000000e+00  2.28000000e+00  5.00000000e-02  1.19191368e-05  1.19191368e+00 
 2.29000000e+00  2.29000000e+00  5.00000000e-02  1.19847564e-05  1.19847564e+00 
 2.30000000e+00  2.30000000e+00  5.00000000e-02  1.20501722e-05  1.20501722e+00 
 2.31000000e+00  2.31000000e+00  5.00000000e-02  1.21153847e-05  1.21153847e+00 
 2.32000000e+00  2.32000000e+00  5.00000000e-02  1.21803942e-05  1.21803942e+00 
 2.33000000e+00  2.33000000e+00  5.00000000e-02  1.22452012e-05  1.22452012e+00 
 2.34000000e+00  2.34000000e+00  5.00000000e-02  1.23098061e-05  1.23098061e+00 
 2.35000000e+00  2.35000000e+00  5.00000000e-02  1.23742092e-05  1.23742092e+00 
 2.36000000e+00  2.36000000e+00  5.00000000e-02  1.24384111e-05  1.24384111e+00 
 2.37000000e+00  2.37000000e+00  5.00000000e-02  1.25024122e-05  1.25024122e+00 
 2.38000000e+00  2.38000000e+00  5.00000000e-02  1.25662128e-05  1.25662128e+00 
 2.39000000e+00  2.39000000e+00  5.00000000e-02  1.26298134e-05  1.26298134e+00 
 2.40000000e+00  2.40000000e+00  5.00000000e-02  1.26932144e-05  1.26932144e+00 
 2.41000000e+00  2.41000000e+00  5.00000000e-02  1.27564162e-05  1.27564162e+00 
 2.42000000e+00  2.42000000e+00  5.00000000e-02  1.28194193e-05  1.28194193e+00 
 2.43000000e+00  2.43000000e+00  5.00000000e-02  1.28822241e-05  1.28822241e+00 
 2.44000000e+00  2.44000000e+00  5.00000000e-02  1.29448311e-05  1.29448311e+00 
