 v-sweep         vsg_out         vsd_out         id              id_w           
 0.00000000e+00  0.00000000e+00  5.00000000e-02  5.28395669e-14  5.28395669e-09 
 1.00000000e-02  1.00000000e-02  5.00000000e-02  5.28395669e-14  5.28395669e-09 
 2.00000000e-02  2.00000000e-02  5.00000000e-02  5.28395669e-14  5.28395669e-09 
 3.00000000e-02  3.00000000e-02  5.00000000e-02  4.93150494e-14  4.93150494e-09 
 4.00000000e-02  4.00000000e-02  5.00000000e-02  5.28395669e-14  5.28395669e-09 
 5.00000000e-02  5.00000000e-02  5.00000000e-02  5.28395669e-14  5.28395669e-09 
 6.00000000e-02  6.00000000e-02  5.00000000e-02  5.28395669e-14  5.28395669e-09 
 7.00000000e-02  7.00000000e-02  5.00000000e-02  5.28395669e-14  5.28395669e-09 
 8.00000000e-02  8.00000000e-02  5.00000000e-02  5.98886020e-14  5.98886020e-09 
 9.00000000e-02  9.00000000e-02  5.00000000e-02  5.63640845e-14  5.63640845e-09 
 1.00000000e-01  1.00000000e-01  5.00000000e-02  5.63640845e-14  5.63640845e-09 
 1.10000000e-01  1.10000000e-01  5.00000000e-02  6.34131196e-14  6.34131196e-09 
 1.20000000e-01  1.20000000e-01  5.00000000e-02  5.63640845e-14  5.63640845e-09 
 1.30000000e-01  1.30000000e-01  5.00000000e-02  6.34131196e-14  6.34131196e-09 
 1.40000000e-01  1.40000000e-01  5.00000000e-02  6.69376371e-14  6.69376371e-09 
 1.50000000e-01  1.50000000e-01  5.00000000e-02  7.04621546e-14  7.04621546e-09 
 1.60000000e-01  1.60000000e-01  5.00000000e-02  7.75111897e-14  7.75111897e-09 
 1.70000000e-01  1.70000000e-01  5.00000000e-02  8.45602248e-14  8.45602248e-09 
 1.80000000e-01  1.80000000e-01  5.00000000e-02  9.51337774e-14  9.51337774e-09 
 1.90000000e-01  1.90000000e-01  5.00000000e-02  1.12756365e-13  1.12756365e-08 
 2.00000000e-01  2.00000000e-01  5.00000000e-02  1.26854435e-13  1.26854435e-08 
 2.10000000e-01  2.10000000e-01  5.00000000e-02  1.48001540e-13  1.48001540e-08 
 2.20000000e-01  2.20000000e-01  5.00000000e-02  1.79722198e-13  1.79722198e-08 
 2.30000000e-01  2.30000000e-01  5.00000000e-02  2.18491891e-13  2.18491891e-08 
 2.40000000e-01  2.40000000e-01  5.00000000e-02  2.71359654e-13  2.71359654e-08 
 2.50000000e-01  2.50000000e-01  5.00000000e-02  3.38325488e-13  3.38325488e-08 
 2.60000000e-01  2.60000000e-01  5.00000000e-02  4.29962944e-13  4.29962944e-08 
 2.70000000e-01  2.70000000e-01  5.00000000e-02  5.46272022e-13  5.46272022e-08 
 2.80000000e-01  2.80000000e-01  5.00000000e-02  6.97826276e-13  6.97826276e-08 
 2.90000000e-01  2.90000000e-01  5.00000000e-02  9.02248294e-13  9.02248294e-08 
 3.00000000e-01  3.00000000e-01  5.00000000e-02  1.15953807e-12  1.15953807e-07 
 3.10000000e-01  3.10000000e-01  5.00000000e-02  1.50846531e-12  1.50846531e-07 
 3.20000000e-01  3.20000000e-01  5.00000000e-02  1.96665259e-12  1.96665259e-07 
 3.30000000e-01  3.30000000e-01  5.00000000e-02  2.55877154e-12  2.55877154e-07 
 3.40000000e-01  3.40000000e-01  5.00000000e-02  3.32711636e-12  3.32711636e-07 
 3.50000000e-01  3.50000000e-01  5.00000000e-02  4.35627548e-12  4.35627548e-07 
 3.60000000e-01  3.60000000e-01  5.00000000e-02  5.68149408e-12  5.68149408e-07 
 3.70000000e-01  3.70000000e-01  5.00000000e-02  7.41908122e-12  7.41908122e-07 
 3.80000000e-01  3.80000000e-01  5.00000000e-02  9.69944407e-12  9.69944407e-07 
 3.90000000e-01  3.90000000e-01  5.00000000e-02  1.26811859e-11  1.26811859e-06 
 4.00000000e-01  4.00000000e-01  5.00000000e-02  1.65687288e-11  1.65687288e-06 
 4.10000000e-01  4.10000000e-01  5.00000000e-02  2.16651811e-11  2.16651811e-06 
 4.20000000e-01  4.20000000e-01  5.00000000e-02  2.83159457e-11  2.83159457e-06 
 4.30000000e-01  4.30000000e-01  5.00000000e-02  3.69933079e-11  3.69933079e-06 
 4.40000000e-01  4.40000000e-01  5.00000000e-02  4.83140582e-11  4.83140582e-06 
 4.50000000e-01  4.50000000e-01  5.00000000e-02  6.30747377e-11  6.30747377e-06 
 4.60000000e-01  4.60000000e-01  5.00000000e-02  8.23080299e-11  8.23080299e-06 
 4.70000000e-01  4.70000000e-01  5.00000000e-02  1.07335629e-10  1.07335629e-05 
 4.80000000e-01  4.80000000e-01  5.00000000e-02  1.39866926e-10  1.39866926e-05 
 4.90000000e-01  4.90000000e-01  5.00000000e-02  1.82118842e-10  1.82118842e-05 
 5.00000000e-01  5.00000000e-01  5.00000000e-02  2.36925090e-10  2.36925090e-05 
 5.10000000e-01  5.10000000e-01  5.00000000e-02  3.07901824e-10  3.07901824e-05 
 5.20000000e-01  5.20000000e-01  5.00000000e-02  3.99673212e-10  3.99673212e-05 
 5.30000000e-01  5.30000000e-01  5.00000000e-02  5.18132246e-10  5.18132246e-05 
 5.40000000e-01  5.40000000e-01  5.00000000e-02  6.70747380e-10  6.70747380e-05 
 5.50000000e-01  5.50000000e-01  5.00000000e-02  8.66939649e-10  8.66939649e-05 
 5.60000000e-01  5.60000000e-01  5.00000000e-02  1.11858668e-09  1.11858668e-04 
 5.70000000e-01  5.70000000e-01  5.00000000e-02  1.44056545e-09  1.44056545e-04 
 5.80000000e-01  5.80000000e-01  5.00000000e-02  1.85144313e-09  1.85144313e-04 
 5.90000000e-01  5.90000000e-01  5.00000000e-02  2.37433703e-09  2.37433703e-04 
 6.00000000e-01  6.00000000e-01  5.00000000e-02  3.03783098e-09  3.03783098e-04 
 6.10000000e-01  6.10000000e-01  5.00000000e-02  3.87718426e-09  3.87718426e-04 
 6.20000000e-01  6.20000000e-01  5.00000000e-02  4.93569909e-09  4.93569909e-04 
 6.30000000e-01  6.30000000e-01  5.00000000e-02  6.26633487e-09  6.26633487e-04 
 6.40000000e-01  6.40000000e-01  5.00000000e-02  7.93351625e-09  7.93351625e-04 
 6.50000000e-01  6.50000000e-01  5.00000000e-02  1.00152479e-08  1.00152479e-03 
 6.60000000e-01  6.60000000e-01  5.00000000e-02  1.26054229e-08  1.26054229e-03 
 6.70000000e-01  6.70000000e-01  5.00000000e-02  1.58160892e-08  1.58160892e-03 
 6.80000000e-01  6.80000000e-01  5.00000000e-02  1.97797158e-08  1.97797158e-03 
 6.90000000e-01  6.90000000e-01  5.00000000e-02  2.46509127e-08  2.46509127e-03 
 7.00000000e-01  7.00000000e-01  5.00000000e-02  3.06072874e-08  3.06072874e-03 
 7.10000000e-01  7.10000000e-01  5.00000000e-02  3.78488915e-08  3.78488915e-03 
 7.20000000e-01  7.20000000e-01  5.00000000e-02  4.65955951e-08  4.65955951e-03 
 7.30000000e-01  7.30000000e-01  5.00000000e-02  5.70819969e-08  5.70819969e-03 
 7.40000000e-01  7.40000000e-01  5.00000000e-02  6.95495724e-08  6.95495724e-03 
 7.50000000e-01  7.50000000e-01  5.00000000e-02  8.42362053e-08  8.42362053e-03 
 7.60000000e-01  7.60000000e-01  5.00000000e-02  1.01363806e-07  1.01363806e-02 
 7.70000000e-01  7.70000000e-01  5.00000000e-02  1.21125286e-07  1.21125286e-02 
 7.80000000e-01  7.80000000e-01  5.00000000e-02  1.43672566e-07  1.43672566e-02 
 7.90000000e-01  7.90000000e-01  5.00000000e-02  1.69107328e-07  1.69107328e-02 
 8.00000000e-01  8.00000000e-01  5.00000000e-02  1.97475866e-07  1.97475866e-02 
 8.10000000e-01  8.10000000e-01  5.00000000e-02  2.28768553e-07  2.28768553e-02 
 8.20000000e-01  8.20000000e-01  5.00000000e-02  2.62923715e-07  2.62923715e-02 
 8.30000000e-01  8.30000000e-01  5.00000000e-02  2.99834725e-07  2.99834725e-02 
 8.40000000e-01  8.40000000e-01  5.00000000e-02  3.39359165e-07  3.39359165e-02 
 8.50000000e-01  8.50000000e-01  5.00000000e-02  3.81328563e-07  3.81328563e-02 
 8.60000000e-01  8.60000000e-01  5.00000000e-02  4.25555711e-07  4.25555711e-02 
 8.70000000e-01  8.70000000e-01  5.00000000e-02  4.71840517e-07  4.71840517e-02 
 8.80000000e-01  8.80000000e-01  5.00000000e-02  5.19986393e-07  5.19986393e-02 
 8.90000000e-01  8.90000000e-01  5.00000000e-02  5.69801063e-07  5.69801063e-02 
 9.00000000e-01  9.00000000e-01  5.00000000e-02  6.21100138e-07  6.21100138e-02 
 9.10000000e-01  9.10000000e-01  5.00000000e-02  6.73709836e-07  6.73709836e-02 
 9.20000000e-01  9.20000000e-01  5.00000000e-02  7.27468671e-07  7.27468671e-02 
 9.30000000e-01  9.30000000e-01  5.00000000e-02  7.82228370e-07  7.82228370e-02 
 9.40000000e-01  9.40000000e-01  5.00000000e-02  8.37854111e-07  8.37854111e-02 
 9.50000000e-01  9.50000000e-01  5.00000000e-02  8.94224342e-07  8.94224342e-02 
 9.60000000e-01  9.60000000e-01  5.00000000e-02  9.51230259e-07  9.51230259e-02 
 9.70000000e-01  9.70000000e-01  5.00000000e-02  1.00877507e-06  1.00877507e-01 
 9.80000000e-01  9.80000000e-01  5.00000000e-02  1.06677312e-06  1.06677312e-01 
 9.90000000e-01  9.90000000e-01  5.00000000e-02  1.12514896e-06  1.12514896e-01 
 1.00000000e+00  1.00000000e+00  5.00000000e-02  1.18383637e-06  1.18383637e-01 
 1.01000000e+00  1.01000000e+00  5.00000000e-02  1.24277746e-06  1.24277746e-01 
 1.02000000e+00  1.02000000e+00  5.00000000e-02  1.30192170e-06  1.30192170e-01 
 1.03000000e+00  1.03000000e+00  5.00000000e-02  1.36122516e-06  1.36122516e-01 
 1.04000000e+00  1.04000000e+00  5.00000000e-02  1.42064965e-06  1.42064965e-01 
 1.05000000e+00  1.05000000e+00  5.00000000e-02  1.48016207e-06  1.48016207e-01 
 1.06000000e+00  1.06000000e+00  5.00000000e-02  1.53973371e-06  1.53973371e-01 
 1.07000000e+00  1.07000000e+00  5.00000000e-02  1.59933974e-06  1.59933974e-01 
 1.08000000e+00  1.08000000e+00  5.00000000e-02  1.65895864e-06  1.65895864e-01 
 1.09000000e+00  1.09000000e+00  5.00000000e-02  1.71857180e-06  1.71857180e-01 
 1.10000000e+00  1.10000000e+00  5.00000000e-02  1.77816309e-06  1.77816309e-01 
 1.11000000e+00  1.11000000e+00  5.00000000e-02  1.83771855e-06  1.83771855e-01 
 1.12000000e+00  1.12000000e+00  5.00000000e-02  1.89722606e-06  1.89722606e-01 
 1.13000000e+00  1.13000000e+00  5.00000000e-02  1.95667508e-06  1.95667508e-01 
 1.14000000e+00  1.14000000e+00  5.00000000e-02  2.01605646e-06  2.01605646e-01 
 1.15000000e+00  1.15000000e+00  5.00000000e-02  2.07536222e-06  2.07536222e-01 
 1.16000000e+00  1.16000000e+00  5.00000000e-02  2.13458540e-06  2.13458540e-01 
 1.17000000e+00  1.17000000e+00  5.00000000e-02  2.19371989e-06  2.19371989e-01 
 1.18000000e+00  1.18000000e+00  5.00000000e-02  2.25276032e-06  2.25276032e-01 
 1.19000000e+00  1.19000000e+00  5.00000000e-02  2.31170201e-06  2.31170201e-01 
 1.20000000e+00  1.20000000e+00  5.00000000e-02  2.37054076e-06  2.37054076e-01 
 1.21000000e+00  1.21000000e+00  5.00000000e-02  2.42927292e-06  2.42927292e-01 
 1.22000000e+00  1.22000000e+00  5.00000000e-02  2.48789518e-06  2.48789518e-01 
 1.23000000e+00  1.23000000e+00  5.00000000e-02  2.54640465e-06  2.54640465e-01 
 1.24000000e+00  1.24000000e+00  5.00000000e-02  2.60479870e-06  2.60479870e-01 
 1.25000000e+00  1.25000000e+00  5.00000000e-02  2.66307500e-06  2.66307500e-01 
 1.26000000e+00  1.26000000e+00  5.00000000e-02  2.72123144e-06  2.72123144e-01 
 1.27000000e+00  1.27000000e+00  5.00000000e-02  2.77926612e-06  2.77926612e-01 
 1.28000000e+00  1.28000000e+00  5.00000000e-02  2.83717730e-06  2.83717730e-01 
 1.29000000e+00  1.29000000e+00  5.00000000e-02  2.89496344e-06  2.89496344e-01 
 1.30000000e+00  1.30000000e+00  5.00000000e-02  2.95262308e-06  2.95262308e-01 
 1.31000000e+00  1.31000000e+00  5.00000000e-02  3.01015493e-06  3.01015493e-01 
 1.32000000e+00  1.32000000e+00  5.00000000e-02  3.06755778e-06  3.06755778e-01 
 1.33000000e+00  1.33000000e+00  5.00000000e-02  3.12483055e-06  3.12483055e-01 
 1.34000000e+00  1.34000000e+00  5.00000000e-02  3.18197220e-06  3.18197220e-01 
 1.35000000e+00  1.35000000e+00  5.00000000e-02  3.23898182e-06  3.23898182e-01 
 1.36000000e+00  1.36000000e+00  5.00000000e-02  3.29585855e-06  3.29585855e-01 
 1.37000000e+00  1.37000000e+00  5.00000000e-02  3.35260159e-06  3.35260159e-01 
 1.38000000e+00  1.38000000e+00  5.00000000e-02  3.40921019e-06  3.40921019e-01 
 1.39000000e+00  1.39000000e+00  5.00000000e-02  3.46568368e-06  3.46568368e-01 
 1.40000000e+00  1.40000000e+00  5.00000000e-02  3.52202143e-06  3.52202143e-01 
 1.41000000e+00  1.41000000e+00  5.00000000e-02  3.57822283e-06  3.57822283e-01 
 1.42000000e+00  1.42000000e+00  5.00000000e-02  3.63428735e-06  3.63428735e-01 
 1.43000000e+00  1.43000000e+00  5.00000000e-02  3.69021448e-06  3.69021448e-01 
 1.44000000e+00  1.44000000e+00  5.00000000e-02  3.74600375e-06  3.74600375e-01 
 1.45000000e+00  1.45000000e+00  5.00000000e-02  3.80165471e-06  3.80165471e-01 
 1.46000000e+00  1.46000000e+00  5.00000000e-02  3.85716698e-06  3.85716698e-01 
 1.47000000e+00  1.47000000e+00  5.00000000e-02  3.91254016e-06  3.91254016e-01 
 1.48000000e+00  1.48000000e+00  5.00000000e-02  3.96777392e-06  3.96777392e-01 
 1.49000000e+00  1.49000000e+00  5.00000000e-02  4.02286792e-06  4.02286792e-01 
 1.50000000e+00  1.50000000e+00  5.00000000e-02  4.07782188e-06  4.07782188e-01 
 1.51000000e+00  1.51000000e+00  5.00000000e-02  4.13263552e-06  4.13263552e-01 
 1.52000000e+00  1.52000000e+00  5.00000000e-02  4.18730858e-06  4.18730858e-01 
 1.53000000e+00  1.53000000e+00  5.00000000e-02  4.24184084e-06  4.24184084e-01 
 1.54000000e+00  1.54000000e+00  5.00000000e-02  4.29623209e-06  4.29623209e-01 
 1.55000000e+00  1.55000000e+00  5.00000000e-02  4.35048213e-06  4.35048213e-01 
 1.56000000e+00  1.56000000e+00  5.00000000e-02  4.40459079e-06  4.40459079e-01 
 1.57000000e+00  1.57000000e+00  5.00000000e-02  4.45855792e-06  4.45855792e-01 
 1.58000000e+00  1.58000000e+00  5.00000000e-02  4.51238335e-06  4.51238335e-01 
 1.59000000e+00  1.59000000e+00  5.00000000e-02  4.56606699e-06  4.56606699e-01 
 1.60000000e+00  1.60000000e+00  5.00000000e-02  4.61960871e-06  4.61960871e-01 
 1.61000000e+00  1.61000000e+00  5.00000000e-02  4.67300842e-06  4.67300842e-01 
 1.62000000e+00  1.62000000e+00  5.00000000e-02  4.72626603e-06  4.72626603e-01 
 1.63000000e+00  1.63000000e+00  5.00000000e-02  4.77938147e-06  4.77938147e-01 
 1.64000000e+00  1.64000000e+00  5.00000000e-02  4.83235469e-06  4.83235469e-01 
 1.65000000e+00  1.65000000e+00  5.00000000e-02  4.88518563e-06  4.88518563e-01 
 1.66000000e+00  1.66000000e+00  5.00000000e-02  4.93787427e-06  4.93787427e-01 
 1.67000000e+00  1.67000000e+00  5.00000000e-02  4.99042057e-06  4.99042057e-01 
 1.68000000e+00  1.68000000e+00  5.00000000e-02  5.04282453e-06  5.04282453e-01 
 1.69000000e+00  1.69000000e+00  5.00000000e-02  5.09508614e-06  5.09508614e-01 
 1.70000000e+00  1.70000000e+00  5.00000000e-02  5.14720539e-06  5.14720539e-01 
 1.71000000e+00  1.71000000e+00  5.00000000e-02  5.19918232e-06  5.19918232e-01 
 1.72000000e+00  1.72000000e+00  5.00000000e-02  5.25101694e-06  5.25101694e-01 
 1.73000000e+00  1.73000000e+00  5.00000000e-02  5.30270928e-06  5.30270928e-01 
 1.74000000e+00  1.74000000e+00  5.00000000e-02  5.35425937e-06  5.35425937e-01 
 1.75000000e+00  1.75000000e+00  5.00000000e-02  5.40566728e-06  5.40566728e-01 
 1.76000000e+00  1.76000000e+00  5.00000000e-02  5.45693306e-06  5.45693306e-01 
 1.77000000e+00  1.77000000e+00  5.00000000e-02  5.50805675e-06  5.50805675e-01 
 1.78000000e+00  1.78000000e+00  5.00000000e-02  5.55903844e-06  5.55903844e-01 
 1.79000000e+00  1.79000000e+00  5.00000000e-02  5.60987820e-06  5.60987820e-01 
 1.80000000e+00  1.80000000e+00  5.00000000e-02  5.66057611e-06  5.66057611e-01 
 1.81000000e+00  1.81000000e+00  5.00000000e-02  5.71113227e-06  5.71113227e-01 
 1.82000000e+00  1.82000000e+00  5.00000000e-02  5.76154676e-06  5.76154676e-01 
 1.83000000e+00  1.83000000e+00  5.00000000e-02  5.81181968e-06  5.81181968e-01 
 1.84000000e+00  1.84000000e+00  5.00000000e-02  5.86195114e-06  5.86195114e-01 
 1.85000000e+00  1.85000000e+00  5.00000000e-02  5.91194125e-06  5.91194125e-01 
 1.86000000e+00  1.86000000e+00  5.00000000e-02  5.96179013e-06  5.96179013e-01 
 1.87000000e+00  1.87000000e+00  5.00000000e-02  6.01149791e-06  6.01149791e-01 
 1.88000000e+00  1.88000000e+00  5.00000000e-02  6.06106469e-06  6.06106469e-01 
 1.89000000e+00  1.89000000e+00  5.00000000e-02  6.11049062e-06  6.11049062e-01 
 1.90000000e+00  1.90000000e+00  5.00000000e-02  6.15977584e-06  6.15977584e-01 
 1.91000000e+00  1.91000000e+00  5.00000000e-02  6.20892046e-06  6.20892046e-01 
 1.92000000e+00  1.92000000e+00  5.00000000e-02  6.25792466e-06  6.25792466e-01 
 1.93000000e+00  1.93000000e+00  5.00000000e-02  6.30678857e-06  6.30678857e-01 
 1.94000000e+00  1.94000000e+00  5.00000000e-02  6.35551235e-06  6.35551235e-01 
 1.95000000e+00  1.95000000e+00  5.00000000e-02  6.40409615e-06  6.40409615e-01 
 1.96000000e+00  1.96000000e+00  5.00000000e-02  6.45254013e-06  6.45254013e-01 
 1.97000000e+00  1.97000000e+00  5.00000000e-02  6.50084445e-06  6.50084445e-01 
 1.98000000e+00  1.98000000e+00  5.00000000e-02  6.54900929e-06  6.54900929e-01 
 1.99000000e+00  1.99000000e+00  5.00000000e-02  6.59703481e-06  6.59703481e-01 
 2.00000000e+00  2.00000000e+00  5.00000000e-02  6.64492117e-06  6.64492117e-01 
 2.01000000e+00  2.01000000e+00  5.00000000e-02  6.69266857e-06  6.69266857e-01 
 2.02000000e+00  2.02000000e+00  5.00000000e-02  6.74027719e-06  6.74027719e-01 
 2.03000000e+00  2.03000000e+00  5.00000000e-02  6.78774720e-06  6.78774720e-01 
 2.04000000e+00  2.04000000e+00  5.00000000e-02  6.83507879e-06  6.83507879e-01 
 2.05000000e+00  2.05000000e+00  5.00000000e-02  6.88227214e-06  6.88227214e-01 
 2.06000000e+00  2.06000000e+00  5.00000000e-02  6.92932746e-06  6.92932746e-01 
 2.07000000e+00  2.07000000e+00  5.00000000e-02  6.97624493e-06  6.97624493e-01 
 2.08000000e+00  2.08000000e+00  5.00000000e-02  7.02302475e-06  7.02302475e-01 
 2.09000000e+00  2.09000000e+00  5.00000000e-02  7.06966712e-06  7.06966712e-01 
 2.10000000e+00  2.10000000e+00  5.00000000e-02  7.11617223e-06  7.11617223e-01 
 2.11000000e+00  2.11000000e+00  5.00000000e-02  7.16254031e-06  7.16254031e-01 
 2.12000000e+00  2.12000000e+00  5.00000000e-02  7.20877154e-06  7.20877154e-01 
 2.13000000e+00  2.13000000e+00  5.00000000e-02  7.25486615e-06  7.25486615e-01 
 2.14000000e+00  2.14000000e+00  5.00000000e-02  7.30082433e-06  7.30082433e-01 
 2.15000000e+00  2.15000000e+00  5.00000000e-02  7.34664630e-06  7.34664630e-01 
 2.16000000e+00  2.16000000e+00  5.00000000e-02  7.39233229e-06  7.39233229e-01 
 2.17000000e+00  2.17000000e+00  5.00000000e-02  7.43788249e-06  7.43788249e-01 
 2.18000000e+00  2.18000000e+00  5.00000000e-02  7.48329713e-06  7.48329713e-01 
 2.19000000e+00  2.19000000e+00  5.00000000e-02  7.52857643e-06  7.52857643e-01 
 2.20000000e+00  2.20000000e+00  5.00000000e-02  7.57372062e-06  7.57372062e-01 
 2.21000000e+00  2.21000000e+00  5.00000000e-02  7.61872993e-06  7.61872993e-01 
 2.22000000e+00  2.22000000e+00  5.00000000e-02  7.66360455e-06  7.66360455e-01 
 2.23000000e+00  2.23000000e+00  5.00000000e-02  7.70834475e-06  7.70834475e-01 
 2.24000000e+00  2.24000000e+00  5.00000000e-02  7.75295073e-06  7.75295073e-01 
 2.25000000e+00  2.25000000e+00  5.00000000e-02  7.79742273e-06  7.79742273e-01 
 2.26000000e+00  2.26000000e+00  5.00000000e-02  7.84176098e-06  7.84176098e-01 
 2.27000000e+00  2.27000000e+00  5.00000000e-02  7.88596572e-06  7.88596572e-01 
 2.28000000e+00  2.28000000e+00  5.00000000e-02  7.93003718e-06  7.93003718e-01 
 2.29000000e+00  2.29000000e+00  5.00000000e-02  7.97397560e-06  7.97397560e-01 
 2.30000000e+00  2.30000000e+00  5.00000000e-02  8.01778121e-06  8.01778121e-01 
 2.31000000e+00  2.31000000e+00  5.00000000e-02  8.06145427e-06  8.06145427e-01 
 2.32000000e+00  2.32000000e+00  5.00000000e-02  8.10499499e-06  8.10499499e-01 
 2.33000000e+00  2.33000000e+00  5.00000000e-02  8.14840362e-06  8.14840362e-01 
 2.34000000e+00  2.34000000e+00  5.00000000e-02  8.19168042e-06  8.19168042e-01 
 2.35000000e+00  2.35000000e+00  5.00000000e-02  8.23482563e-06  8.23482563e-01 
 2.36000000e+00  2.36000000e+00  5.00000000e-02  8.27783947e-06  8.27783947e-01 
 2.37000000e+00  2.37000000e+00  5.00000000e-02  8.32072221e-06  8.32072221e-01 
 2.38000000e+00  2.38000000e+00  5.00000000e-02  8.36347411e-06  8.36347411e-01 
 2.39000000e+00  2.39000000e+00  5.00000000e-02  8.40609538e-06  8.40609538e-01 
 2.40000000e+00  2.40000000e+00  5.00000000e-02  8.44858630e-06  8.44858630e-01 
 2.41000000e+00  2.41000000e+00  5.00000000e-02  8.49094710e-06  8.49094710e-01 
 2.42000000e+00  2.42000000e+00  5.00000000e-02  8.53317805e-06  8.53317805e-01 
 2.43000000e+00  2.43000000e+00  5.00000000e-02  8.57527939e-06  8.57527939e-01 
 2.44000000e+00  2.44000000e+00  5.00000000e-02  8.61725138e-06  8.61725138e-01 
