 v-sweep         vsg_out         vsd_out         id              id_w           
 0.00000000e+00  0.00000000e+00  5.00000000e-02  5.28395669e-14  5.28395669e-09 
 1.00000000e-02  1.00000000e-02  5.00000000e-02  5.28395669e-14  5.28395669e-09 
 2.00000000e-02  2.00000000e-02  5.00000000e-02  5.28395669e-14  5.28395669e-09 
 3.00000000e-02  3.00000000e-02  5.00000000e-02  5.28395669e-14  5.28395669e-09 
 4.00000000e-02  4.00000000e-02  5.00000000e-02  5.28395669e-14  5.28395669e-09 
 5.00000000e-02  5.00000000e-02  5.00000000e-02  5.63640845e-14  5.63640845e-09 
 6.00000000e-02  6.00000000e-02  5.00000000e-02  5.63640845e-14  5.63640845e-09 
 7.00000000e-02  7.00000000e-02  5.00000000e-02  5.28395669e-14  5.28395669e-09 
 8.00000000e-02  8.00000000e-02  5.00000000e-02  5.98886020e-14  5.98886020e-09 
 9.00000000e-02  9.00000000e-02  5.00000000e-02  5.98886020e-14  5.98886020e-09 
 1.00000000e-01  1.00000000e-01  5.00000000e-02  6.69376371e-14  6.69376371e-09 
 1.10000000e-01  1.10000000e-01  5.00000000e-02  6.34131196e-14  6.34131196e-09 
 1.20000000e-01  1.20000000e-01  5.00000000e-02  7.04621546e-14  7.04621546e-09 
 1.30000000e-01  1.30000000e-01  5.00000000e-02  7.75111897e-14  7.75111897e-09 
 1.40000000e-01  1.40000000e-01  5.00000000e-02  8.80847423e-14  8.80847423e-09 
 1.50000000e-01  1.50000000e-01  5.00000000e-02  9.86582949e-14  9.86582949e-09 
 1.60000000e-01  1.60000000e-01  5.00000000e-02  1.12756365e-13  1.12756365e-08 
 1.70000000e-01  1.70000000e-01  5.00000000e-02  1.37427988e-13  1.37427988e-08 
 1.80000000e-01  1.80000000e-01  5.00000000e-02  1.58575093e-13  1.58575093e-08 
 1.90000000e-01  1.90000000e-01  5.00000000e-02  1.90295751e-13  1.90295751e-08 
 2.00000000e-01  2.00000000e-01  5.00000000e-02  2.32589961e-13  2.32589961e-08 
 2.10000000e-01  2.10000000e-01  5.00000000e-02  2.92506760e-13  2.92506760e-08 
 2.20000000e-01  2.20000000e-01  5.00000000e-02  3.73570663e-13  3.73570663e-08 
 2.30000000e-01  2.30000000e-01  5.00000000e-02  4.68732636e-13  4.68732636e-08 
 2.40000000e-01  2.40000000e-01  5.00000000e-02  5.99139785e-13  5.99139785e-08 
 2.50000000e-01  2.50000000e-01  5.00000000e-02  7.68316627e-13  7.68316627e-08 
 2.60000000e-01  2.60000000e-01  5.00000000e-02  9.93885750e-13  9.93885750e-08 
 2.70000000e-01  2.70000000e-01  5.00000000e-02  1.28642071e-12  1.28642071e-07 
 2.80000000e-01  2.80000000e-01  5.00000000e-02  1.67059312e-12  1.67059312e-07 
 2.90000000e-01  2.90000000e-01  5.00000000e-02  2.17107461e-12  2.17107461e-07 
 3.00000000e-01  3.00000000e-01  5.00000000e-02  2.83015939e-12  2.83015939e-07 
 3.10000000e-01  3.10000000e-01  5.00000000e-02  3.69014167e-12  3.69014167e-07 
 3.20000000e-01  3.20000000e-01  5.00000000e-02  4.82151180e-12  4.82151180e-07 
 3.30000000e-01  3.30000000e-01  5.00000000e-02  6.30180916e-12  6.30180916e-07 
 3.40000000e-01  3.40000000e-01  5.00000000e-02  8.24029381e-12  8.24029381e-07 
 3.50000000e-01  3.50000000e-01  5.00000000e-02  1.07814710e-11  1.07814710e-06 
 3.60000000e-01  3.60000000e-01  5.00000000e-02  1.41050910e-11  1.41050910e-06 
 3.70000000e-01  3.70000000e-01  5.00000000e-02  1.84508211e-11  1.84508211e-06 
 3.80000000e-01  3.80000000e-01  5.00000000e-02  2.41534905e-11  2.41534905e-06 
 3.90000000e-01  3.90000000e-01  5.00000000e-02  3.15972715e-11  3.15972715e-06 
 4.00000000e-01  4.00000000e-01  5.00000000e-02  4.13460870e-11  4.13460870e-06 
 4.10000000e-01  4.10000000e-01  5.00000000e-02  5.40836934e-11  5.40836934e-06 
 4.20000000e-01  4.20000000e-01  5.00000000e-02  7.07370388e-11  7.07370388e-06 
 4.30000000e-01  4.30000000e-01  5.00000000e-02  9.24868365e-11  9.24868365e-06 
 4.40000000e-01  4.40000000e-01  5.00000000e-02  1.20876825e-10  1.20876825e-05 
 4.50000000e-01  4.50000000e-01  5.00000000e-02  1.57919505e-10  1.57919505e-05 
 4.60000000e-01  4.60000000e-01  5.00000000e-02  2.06223017e-10  2.06223017e-05 
 4.70000000e-01  4.70000000e-01  5.00000000e-02  2.69153278e-10  2.69153278e-05 
 4.80000000e-01  4.80000000e-01  5.00000000e-02  3.51066590e-10  3.51066590e-05 
 4.90000000e-01  4.90000000e-01  5.00000000e-02  4.57588084e-10  4.57588084e-05 
 5.00000000e-01  5.00000000e-01  5.00000000e-02  5.95939495e-10  5.95939495e-05 
 5.10000000e-01  5.10000000e-01  5.00000000e-02  7.75425551e-10  7.75425551e-05 
 5.20000000e-01  5.20000000e-01  5.00000000e-02  1.00793445e-09  1.00793445e-04 
 5.30000000e-01  5.30000000e-01  5.00000000e-02  1.30867096e-09  1.30867096e-04 
 5.40000000e-01  5.40000000e-01  5.00000000e-02  1.69694238e-09  1.69694238e-04 
 5.50000000e-01  5.50000000e-01  5.00000000e-02  2.19732519e-09  2.19732519e-04 
 5.60000000e-01  5.60000000e-01  5.00000000e-02  2.84079988e-09  2.84079988e-04 
 5.70000000e-01  5.70000000e-01  5.00000000e-02  3.66642164e-09  3.66642164e-04 
 5.80000000e-01  5.80000000e-01  5.00000000e-02  4.72314248e-09  4.72314248e-04 
 5.90000000e-01  5.90000000e-01  5.00000000e-02  6.07210575e-09  6.07210575e-04 
 6.00000000e-01  6.00000000e-01  5.00000000e-02  7.78931766e-09  7.78931766e-04 
 6.10000000e-01  6.10000000e-01  5.00000000e-02  9.96888988e-09  9.96888988e-04 
 6.20000000e-01  6.20000000e-01  5.00000000e-02  1.27268143e-08  1.27268143e-03 
 6.30000000e-01  6.30000000e-01  5.00000000e-02  1.62054144e-08  1.62054144e-03 
 6.40000000e-01  6.40000000e-01  5.00000000e-02  2.05785723e-08  2.05785723e-03 
 6.50000000e-01  6.50000000e-01  5.00000000e-02  2.60576040e-08  2.60576040e-03 
 6.60000000e-01  6.60000000e-01  5.00000000e-02  3.28979172e-08  3.28979172e-03 
 6.70000000e-01  6.70000000e-01  5.00000000e-02  4.14061695e-08  4.14061695e-03 
 6.80000000e-01  6.80000000e-01  5.00000000e-02  5.19475080e-08  5.19475080e-03 
 6.90000000e-01  6.90000000e-01  5.00000000e-02  6.49522164e-08  6.49522164e-03 
 7.00000000e-01  7.00000000e-01  5.00000000e-02  8.09206529e-08  8.09206529e-03 
 7.10000000e-01  7.10000000e-01  5.00000000e-02  1.00425037e-07  1.00425037e-02 
 7.20000000e-01  7.20000000e-01  5.00000000e-02  1.24106246e-07  1.24106246e-02 
 7.30000000e-01  7.30000000e-01  5.00000000e-02  1.52663839e-07  1.52663839e-02 
 7.40000000e-01  7.40000000e-01  5.00000000e-02  1.86837780e-07  1.86837780e-02 
 7.50000000e-01  7.50000000e-01  5.00000000e-02  2.27381461e-07  2.27381461e-02 
 7.60000000e-01  7.60000000e-01  5.00000000e-02  2.75026837e-07  2.75026837e-02 
 7.70000000e-01  7.70000000e-01  5.00000000e-02  3.30444624e-07  3.30444624e-02 
 7.80000000e-01  7.80000000e-01  5.00000000e-02  3.94204123e-07  3.94204123e-02 
 7.90000000e-01  7.90000000e-01  5.00000000e-02  4.66738073e-07  4.66738073e-02 
 8.00000000e-01  8.00000000e-01  5.00000000e-02  5.48317621e-07  5.48317621e-02 
 8.10000000e-01  8.10000000e-01  5.00000000e-02  6.39040722e-07  6.39040722e-02 
 8.20000000e-01  8.20000000e-01  5.00000000e-02  7.38834757e-07  7.38834757e-02 
 8.30000000e-01  8.30000000e-01  5.00000000e-02  8.47471373e-07  8.47471373e-02 
 8.40000000e-01  8.40000000e-01  5.00000000e-02  9.64590147e-07  9.64590147e-02 
 8.50000000e-01  8.50000000e-01  5.00000000e-02  1.08972694e-06  1.08972694e-01 
 8.60000000e-01  8.60000000e-01  5.00000000e-02  1.22233722e-06  1.22233722e-01 
 8.70000000e-01  8.70000000e-01  5.00000000e-02  1.36181615e-06  1.36181615e-01 
 8.80000000e-01  8.80000000e-01  5.00000000e-02  1.50755156e-06  1.50755156e-01 
 8.90000000e-01  8.90000000e-01  5.00000000e-02  1.65893049e-06  1.65893049e-01 
 9.00000000e-01  9.00000000e-01  5.00000000e-02  1.81535370e-06  1.81535370e-01 
 9.10000000e-01  9.10000000e-01  5.00000000e-02  1.97624736e-06  1.97624736e-01 
 9.20000000e-01  9.20000000e-01  5.00000000e-02  2.14107097e-06  2.14107097e-01 
 9.30000000e-01  9.30000000e-01  5.00000000e-02  2.30932254e-06  2.30932254e-01 
 9.40000000e-01  9.40000000e-01  5.00000000e-02  2.48054116e-06  2.48054116e-01 
 9.50000000e-01  9.50000000e-01  5.00000000e-02  2.65430786e-06  2.65430786e-01 
 9.60000000e-01  9.60000000e-01  5.00000000e-02  2.83024500e-06  2.83024500e-01 
 9.70000000e-01  9.70000000e-01  5.00000000e-02  3.00801467e-06  3.00801467e-01 
 9.80000000e-01  9.80000000e-01  5.00000000e-02  3.18731644e-06  3.18731644e-01 
 9.90000000e-01  9.90000000e-01  5.00000000e-02  3.36788464e-06  3.36788464e-01 
 1.00000000e+00  1.00000000e+00  5.00000000e-02  3.54948547e-06  3.54948547e-01 
 1.01000000e+00  1.01000000e+00  5.00000000e-02  3.73191404e-06  3.73191404e-01 
 1.02000000e+00  1.02000000e+00  5.00000000e-02  3.91499141e-06  3.91499141e-01 
 1.03000000e+00  1.03000000e+00  5.00000000e-02  4.09856177e-06  4.09856177e-01 
 1.04000000e+00  1.04000000e+00  5.00000000e-02  4.28248985e-06  4.28248985e-01 
 1.05000000e+00  1.05000000e+00  5.00000000e-02  4.46665842e-06  4.46665842e-01 
 1.06000000e+00  1.06000000e+00  5.00000000e-02  4.65096607e-06  4.65096607e-01 
 1.07000000e+00  1.07000000e+00  5.00000000e-02  4.83532521e-06  4.83532521e-01 
 1.08000000e+00  1.08000000e+00  5.00000000e-02  5.01966027e-06  5.01966027e-01 
 1.09000000e+00  1.09000000e+00  5.00000000e-02  5.20390610e-06  5.20390610e-01 
 1.10000000e+00  1.10000000e+00  5.00000000e-02  5.38800654e-06  5.38800654e-01 
 1.11000000e+00  1.11000000e+00  5.00000000e-02  5.57191322e-06  5.57191322e-01 
 1.12000000e+00  1.12000000e+00  5.00000000e-02  5.75558443e-06  5.75558443e-01 
 1.13000000e+00  1.13000000e+00  5.00000000e-02  5.93898423e-06  5.93898423e-01 
 1.14000000e+00  1.14000000e+00  5.00000000e-02  6.12208161e-06  6.12208161e-01 
 1.15000000e+00  1.15000000e+00  5.00000000e-02  6.30484982e-06  6.30484982e-01 
 1.16000000e+00  1.16000000e+00  5.00000000e-02  6.48726572e-06  6.48726572e-01 
 1.17000000e+00  1.17000000e+00  5.00000000e-02  6.66930927e-06  6.66930927e-01 
 1.18000000e+00  1.18000000e+00  5.00000000e-02  6.85096313e-06  6.85096313e-01 
 1.19000000e+00  1.19000000e+00  5.00000000e-02  7.03221223e-06  7.03221223e-01 
 1.20000000e+00  1.20000000e+00  5.00000000e-02  7.21304347e-06  7.21304347e-01 
 1.21000000e+00  1.21000000e+00  5.00000000e-02  7.39344543e-06  7.39344543e-01 
 1.22000000e+00  1.22000000e+00  5.00000000e-02  7.57340814e-06  7.57340814e-01 
 1.23000000e+00  1.23000000e+00  5.00000000e-02  7.75292288e-06  7.75292288e-01 
 1.24000000e+00  1.24000000e+00  5.00000000e-02  7.93198200e-06  7.93198200e-01 
 1.25000000e+00  1.25000000e+00  5.00000000e-02  8.11057878e-06  8.11057878e-01 
 1.26000000e+00  1.26000000e+00  5.00000000e-02  8.28870729e-06  8.28870729e-01 
 1.27000000e+00  1.27000000e+00  5.00000000e-02  8.46636233e-06  8.46636233e-01 
 1.28000000e+00  1.28000000e+00  5.00000000e-02  8.64353928e-06  8.64353928e-01 
 1.29000000e+00  1.29000000e+00  5.00000000e-02  8.82023405e-06  8.82023405e-01 
 1.30000000e+00  1.30000000e+00  5.00000000e-02  8.99644302e-06  8.99644302e-01 
 1.31000000e+00  1.31000000e+00  5.00000000e-02  9.17216298e-06  9.17216298e-01 
 1.32000000e+00  1.32000000e+00  5.00000000e-02  9.34739109e-06  9.34739109e-01 
 1.33000000e+00  1.33000000e+00  5.00000000e-02  9.52212480e-06  9.52212480e-01 
 1.34000000e+00  1.34000000e+00  5.00000000e-02  9.69636187e-06  9.69636187e-01 
 1.35000000e+00  1.35000000e+00  5.00000000e-02  9.87010030e-06  9.87010030e-01 
 1.36000000e+00  1.36000000e+00  5.00000000e-02  1.00433383e-05  1.00433383e+00 
 1.37000000e+00  1.37000000e+00  5.00000000e-02  1.02160743e-05  1.02160743e+00 
 1.38000000e+00  1.38000000e+00  5.00000000e-02  1.03883070e-05  1.03883070e+00 
 1.39000000e+00  1.39000000e+00  5.00000000e-02  1.05600351e-05  1.05600351e+00 
 1.40000000e+00  1.40000000e+00  5.00000000e-02  1.07312575e-05  1.07312575e+00 
 1.41000000e+00  1.41000000e+00  5.00000000e-02  1.09019734e-05  1.09019734e+00 
 1.42000000e+00  1.42000000e+00  5.00000000e-02  1.10721819e-05  1.10721819e+00 
 1.43000000e+00  1.43000000e+00  5.00000000e-02  1.12418824e-05  1.12418824e+00 
 1.44000000e+00  1.44000000e+00  5.00000000e-02  1.14110742e-05  1.14110742e+00 
 1.45000000e+00  1.45000000e+00  5.00000000e-02  1.15797570e-05  1.15797570e+00 
 1.46000000e+00  1.46000000e+00  5.00000000e-02  1.17479303e-05  1.17479303e+00 
 1.47000000e+00  1.47000000e+00  5.00000000e-02  1.19155938e-05  1.19155938e+00 
 1.48000000e+00  1.48000000e+00  5.00000000e-02  1.20827474e-05  1.20827474e+00 
 1.49000000e+00  1.49000000e+00  5.00000000e-02  1.22493909e-05  1.22493909e+00 
 1.50000000e+00  1.50000000e+00  5.00000000e-02  1.24155242e-05  1.24155242e+00 
 1.51000000e+00  1.51000000e+00  5.00000000e-02  1.25811474e-05  1.25811474e+00 
 1.52000000e+00  1.52000000e+00  5.00000000e-02  1.27462604e-05  1.27462604e+00 
 1.53000000e+00  1.53000000e+00  5.00000000e-02  1.29108635e-05  1.29108635e+00 
 1.54000000e+00  1.54000000e+00  5.00000000e-02  1.30749568e-05  1.30749568e+00 
 1.55000000e+00  1.55000000e+00  5.00000000e-02  1.32385406e-05  1.32385406e+00 
 1.56000000e+00  1.56000000e+00  5.00000000e-02  1.34016150e-05  1.34016150e+00 
 1.57000000e+00  1.57000000e+00  5.00000000e-02  1.35641806e-05  1.35641806e+00 
 1.58000000e+00  1.58000000e+00  5.00000000e-02  1.37262376e-05  1.37262376e+00 
 1.59000000e+00  1.59000000e+00  5.00000000e-02  1.38877864e-05  1.38877864e+00 
 1.60000000e+00  1.60000000e+00  5.00000000e-02  1.40488276e-05  1.40488276e+00 
 1.61000000e+00  1.61000000e+00  5.00000000e-02  1.42093615e-05  1.42093615e+00 
 1.62000000e+00  1.62000000e+00  5.00000000e-02  1.43693888e-05  1.43693888e+00 
 1.63000000e+00  1.63000000e+00  5.00000000e-02  1.45289100e-05  1.45289100e+00 
 1.64000000e+00  1.64000000e+00  5.00000000e-02  1.46879257e-05  1.46879257e+00 
 1.65000000e+00  1.65000000e+00  5.00000000e-02  1.48464365e-05  1.48464365e+00 
 1.66000000e+00  1.66000000e+00  5.00000000e-02  1.50044431e-05  1.50044431e+00 
 1.67000000e+00  1.67000000e+00  5.00000000e-02  1.51619462e-05  1.51619462e+00 
 1.68000000e+00  1.68000000e+00  5.00000000e-02  1.53189464e-05  1.53189464e+00 
 1.69000000e+00  1.69000000e+00  5.00000000e-02  1.54754446e-05  1.54754446e+00 
 1.70000000e+00  1.70000000e+00  5.00000000e-02  1.56314415e-05  1.56314415e+00 
 1.71000000e+00  1.71000000e+00  5.00000000e-02  1.57869378e-05  1.57869378e+00 
 1.72000000e+00  1.72000000e+00  5.00000000e-02  1.59419345e-05  1.59419345e+00 
 1.73000000e+00  1.73000000e+00  5.00000000e-02  1.60964322e-05  1.60964322e+00 
 1.74000000e+00  1.74000000e+00  5.00000000e-02  1.62504319e-05  1.62504319e+00 
 1.75000000e+00  1.75000000e+00  5.00000000e-02  1.64039344e-05  1.64039344e+00 
 1.76000000e+00  1.76000000e+00  5.00000000e-02  1.65569406e-05  1.65569406e+00 
 1.77000000e+00  1.77000000e+00  5.00000000e-02  1.67094515e-05  1.67094515e+00 
 1.78000000e+00  1.78000000e+00  5.00000000e-02  1.68614678e-05  1.68614678e+00 
 1.79000000e+00  1.79000000e+00  5.00000000e-02  1.70129907e-05  1.70129907e+00 
 1.80000000e+00  1.80000000e+00  5.00000000e-02  1.71640209e-05  1.71640209e+00 
 1.81000000e+00  1.81000000e+00  5.00000000e-02  1.73145596e-05  1.73145596e+00 
 1.82000000e+00  1.82000000e+00  5.00000000e-02  1.74646076e-05  1.74646076e+00 
 1.83000000e+00  1.83000000e+00  5.00000000e-02  1.76141659e-05  1.76141659e+00 
 1.84000000e+00  1.84000000e+00  5.00000000e-02  1.77632356e-05  1.77632356e+00 
 1.85000000e+00  1.85000000e+00  5.00000000e-02  1.79118176e-05  1.79118176e+00 
 1.86000000e+00  1.86000000e+00  5.00000000e-02  1.80599131e-05  1.80599131e+00 
 1.87000000e+00  1.87000000e+00  5.00000000e-02  1.82075229e-05  1.82075229e+00 
 1.88000000e+00  1.88000000e+00  5.00000000e-02  1.83546483e-05  1.83546483e+00 
 1.89000000e+00  1.89000000e+00  5.00000000e-02  1.85012902e-05  1.85012902e+00 
 1.90000000e+00  1.90000000e+00  5.00000000e-02  1.86474496e-05  1.86474496e+00 
 1.91000000e+00  1.91000000e+00  5.00000000e-02  1.87931278e-05  1.87931278e+00 
 1.92000000e+00  1.92000000e+00  5.00000000e-02  1.89383257e-05  1.89383257e+00 
 1.93000000e+00  1.93000000e+00  5.00000000e-02  1.90830444e-05  1.90830444e+00 
 1.94000000e+00  1.94000000e+00  5.00000000e-02  1.92272851e-05  1.92272851e+00 
 1.95000000e+00  1.95000000e+00  5.00000000e-02  1.93710489e-05  1.93710489e+00 
 1.96000000e+00  1.96000000e+00  5.00000000e-02  1.95143368e-05  1.95143368e+00 
 1.97000000e+00  1.97000000e+00  5.00000000e-02  1.96571500e-05  1.96571500e+00 
 1.98000000e+00  1.98000000e+00  5.00000000e-02  1.97994896e-05  1.97994896e+00 
 1.99000000e+00  1.99000000e+00  5.00000000e-02  1.99413568e-05  1.99413568e+00 
 2.00000000e+00  2.00000000e+00  5.00000000e-02  2.00827526e-05  2.00827526e+00 
 2.01000000e+00  2.01000000e+00  5.00000000e-02  2.02236783e-05  2.02236783e+00 
 2.02000000e+00  2.02000000e+00  5.00000000e-02  2.03641349e-05  2.03641349e+00 
 2.03000000e+00  2.03000000e+00  5.00000000e-02  2.05041237e-05  2.05041237e+00 
 2.04000000e+00  2.04000000e+00  5.00000000e-02  2.06436457e-05  2.06436457e+00 
 2.05000000e+00  2.05000000e+00  5.00000000e-02  2.07827022e-05  2.07827022e+00 
 2.06000000e+00  2.06000000e+00  5.00000000e-02  2.09212943e-05  2.09212943e+00 
 2.07000000e+00  2.07000000e+00  5.00000000e-02  2.10594232e-05  2.10594232e+00 
 2.08000000e+00  2.08000000e+00  5.00000000e-02  2.11970901e-05  2.11970901e+00 
 2.09000000e+00  2.09000000e+00  5.00000000e-02  2.13342960e-05  2.13342960e+00 
 2.10000000e+00  2.10000000e+00  5.00000000e-02  2.14710423e-05  2.14710423e+00 
 2.11000000e+00  2.11000000e+00  5.00000000e-02  2.16073301e-05  2.16073301e+00 
 2.12000000e+00  2.12000000e+00  5.00000000e-02  2.17431605e-05  2.17431605e+00 
 2.13000000e+00  2.13000000e+00  5.00000000e-02  2.18785349e-05  2.18785349e+00 
 2.14000000e+00  2.14000000e+00  5.00000000e-02  2.20134542e-05  2.20134542e+00 
 2.15000000e+00  2.15000000e+00  5.00000000e-02  2.21479199e-05  2.21479199e+00 
 2.16000000e+00  2.16000000e+00  5.00000000e-02  2.22819329e-05  2.22819329e+00 
 2.17000000e+00  2.17000000e+00  5.00000000e-02  2.24154947e-05  2.24154947e+00 
 2.18000000e+00  2.18000000e+00  5.00000000e-02  2.25486062e-05  2.25486062e+00 
 2.19000000e+00  2.19000000e+00  5.00000000e-02  2.26812688e-05  2.26812688e+00 
 2.20000000e+00  2.20000000e+00  5.00000000e-02  2.28134837e-05  2.28134837e+00 
 2.21000000e+00  2.21000000e+00  5.00000000e-02  2.29452520e-05  2.29452520e+00 
 2.22000000e+00  2.22000000e+00  5.00000000e-02  2.30765750e-05  2.30765750e+00 
 2.23000000e+00  2.23000000e+00  5.00000000e-02  2.32074538e-05  2.32074538e+00 
 2.24000000e+00  2.24000000e+00  5.00000000e-02  2.33378897e-05  2.33378897e+00 
 2.25000000e+00  2.25000000e+00  5.00000000e-02  2.34678838e-05  2.34678838e+00 
 2.26000000e+00  2.26000000e+00  5.00000000e-02  2.35974375e-05  2.35974375e+00 
 2.27000000e+00  2.27000000e+00  5.00000000e-02  2.37265518e-05  2.37265518e+00 
 2.28000000e+00  2.28000000e+00  5.00000000e-02  2.38552281e-05  2.38552281e+00 
 2.29000000e+00  2.29000000e+00  5.00000000e-02  2.39834675e-05  2.39834675e+00 
 2.30000000e+00  2.30000000e+00  5.00000000e-02  2.41112712e-05  2.41112712e+00 
 2.31000000e+00  2.31000000e+00  5.00000000e-02  2.42386404e-05  2.42386404e+00 
 2.32000000e+00  2.32000000e+00  5.00000000e-02  2.43655764e-05  2.43655764e+00 
 2.33000000e+00  2.33000000e+00  5.00000000e-02  2.44920803e-05  2.44920803e+00 
 2.34000000e+00  2.34000000e+00  5.00000000e-02  2.46181535e-05  2.46181535e+00 
 2.35000000e+00  2.35000000e+00  5.00000000e-02  2.47437970e-05  2.47437970e+00 
 2.36000000e+00  2.36000000e+00  5.00000000e-02  2.48690121e-05  2.48690121e+00 
 2.37000000e+00  2.37000000e+00  5.00000000e-02  2.49938000e-05  2.49938000e+00 
 2.38000000e+00  2.38000000e+00  5.00000000e-02  2.51181619e-05  2.51181619e+00 
 2.39000000e+00  2.39000000e+00  5.00000000e-02  2.52420990e-05  2.52420990e+00 
 2.40000000e+00  2.40000000e+00  5.00000000e-02  2.53656126e-05  2.53656126e+00 
 2.41000000e+00  2.41000000e+00  5.00000000e-02  2.54887039e-05  2.54887039e+00 
 2.42000000e+00  2.42000000e+00  5.00000000e-02  2.56113739e-05  2.56113739e+00 
 2.43000000e+00  2.43000000e+00  5.00000000e-02  2.57336241e-05  2.57336241e+00 
 2.44000000e+00  2.44000000e+00  5.00000000e-02  2.58554555e-05  2.58554555e+00 
