 v-sweep         vgs_out         vds_out         id              id_w           
 0.00000000e+00  0.00000000e+00  5.00000000e-02  8.21104208e-14  8.21104208e-09 
 1.00000000e-02  1.00000000e-02  5.00000000e-02  9.10869264e-14  9.10869264e-09 
 2.00000000e-02  2.00000000e-02  5.00000000e-02  1.06066126e-13  1.06066126e-08 
 3.00000000e-02  3.00000000e-02  5.00000000e-02  1.24129278e-13  1.24129278e-08 
 4.00000000e-02  4.00000000e-02  5.00000000e-02  1.47974842e-13  1.47974842e-08 
 5.00000000e-02  5.00000000e-02  5.00000000e-02  1.79475218e-13  1.79475218e-08 
 6.00000000e-02  6.00000000e-02  5.00000000e-02  2.21108581e-13  2.21108581e-08 
 7.00000000e-02  7.00000000e-02  5.00000000e-02  2.76013956e-13  2.76013956e-08 
 8.00000000e-02  8.00000000e-02  5.00000000e-02  3.48541918e-13  3.48541918e-08 
 9.00000000e-02  9.00000000e-02  5.00000000e-02  4.44474880e-13  4.44474880e-08 
 1.00000000e-01  1.00000000e-01  5.00000000e-02  5.70972017e-13  5.70972017e-08 
 1.10000000e-01  1.10000000e-01  5.00000000e-02  7.38221389e-13  7.38221389e-08 
 1.20000000e-01  1.20000000e-01  5.00000000e-02  9.59054441e-13  9.59054441e-08 
 1.30000000e-01  1.30000000e-01  5.00000000e-02  1.25048798e-12  1.25048798e-07 
 1.40000000e-01  1.40000000e-01  5.00000000e-02  1.63548646e-12  1.63548646e-07 
 1.50000000e-01  1.50000000e-01  5.00000000e-02  2.14362276e-12  2.14362276e-07 
 1.60000000e-01  1.60000000e-01  5.00000000e-02  2.81438250e-12  2.81438250e-07 
 1.70000000e-01  1.70000000e-01  5.00000000e-02  3.69986246e-12  3.69986246e-07 
 1.80000000e-01  1.80000000e-01  5.00000000e-02  4.86851538e-12  4.86851538e-07 
 1.90000000e-01  1.90000000e-01  5.00000000e-02  6.41060194e-12  6.41060194e-07 
 2.00000000e-01  2.00000000e-01  5.00000000e-02  8.44546012e-12  8.44546012e-07 
 2.10000000e-01  2.10000000e-01  5.00000000e-02  1.11299309e-11  1.11299309e-06 
 2.20000000e-01  2.20000000e-01  5.00000000e-02  1.46710798e-11  1.46710798e-06 
 2.30000000e-01  2.30000000e-01  5.00000000e-02  1.93412307e-11  1.93412307e-06 
 2.40000000e-01  2.40000000e-01  5.00000000e-02  2.54994991e-11  2.54994991e-06 
 2.50000000e-01  2.50000000e-01  5.00000000e-02  3.36178948e-11  3.36178948e-06 
 2.60000000e-01  2.60000000e-01  5.00000000e-02  4.43183851e-11  4.43183851e-06 
 2.70000000e-01  2.70000000e-01  5.00000000e-02  5.84182175e-11  5.84182175e-06 
 2.80000000e-01  2.80000000e-01  5.00000000e-02  7.69916540e-11  7.69916540e-06 
 2.90000000e-01  2.90000000e-01  5.00000000e-02  1.01450429e-10  1.01450429e-05 
 3.00000000e-01  3.00000000e-01  5.00000000e-02  1.33647062e-10  1.33647062e-05 
 3.10000000e-01  3.10000000e-01  5.00000000e-02  1.76011708e-10  1.76011708e-05 
 3.20000000e-01  3.20000000e-01  5.00000000e-02  2.31728988e-10  2.31728988e-05 
 3.30000000e-01  3.30000000e-01  5.00000000e-02  3.04967967e-10  3.04967967e-05 
 3.40000000e-01  3.40000000e-01  5.00000000e-02  4.01179751e-10  4.01179751e-05 
 3.50000000e-01  3.50000000e-01  5.00000000e-02  5.27482930e-10  5.27482930e-05 
 3.60000000e-01  3.60000000e-01  5.00000000e-02  6.93158824e-10  6.93158824e-05 
 3.70000000e-01  3.70000000e-01  5.00000000e-02  9.10288655e-10  9.10288655e-05 
 3.80000000e-01  3.80000000e-01  5.00000000e-02  1.19456715e-09  1.19456715e-04 
 3.90000000e-01  3.90000000e-01  5.00000000e-02  1.56634048e-09  1.56634048e-04 
 4.00000000e-01  4.00000000e-01  5.00000000e-02  2.05191937e-09  2.05191937e-04 
 4.10000000e-01  4.10000000e-01  5.00000000e-02  2.68523745e-09  2.68523745e-04 
 4.20000000e-01  4.20000000e-01  5.00000000e-02  3.50992851e-09  3.50992851e-04 
 4.30000000e-01  4.30000000e-01  5.00000000e-02  4.58191515e-09  4.58191515e-04 
 4.40000000e-01  4.40000000e-01  5.00000000e-02  5.97261350e-09  5.97261350e-04 
 4.50000000e-01  4.50000000e-01  5.00000000e-02  7.77287125e-09  7.77287125e-04 
 4.60000000e-01  4.60000000e-01  5.00000000e-02  1.00977746e-08  1.00977746e-03 
 4.70000000e-01  4.70000000e-01  5.00000000e-02  1.30924704e-08  1.30924704e-03 
 4.80000000e-01  4.80000000e-01  5.00000000e-02  1.69391645e-08  1.69391645e-03 
 4.90000000e-01  4.90000000e-01  5.00000000e-02  2.18654674e-08  2.18654674e-03 
 5.00000000e-01  5.00000000e-01  5.00000000e-02  2.81542553e-08  2.81542553e-03 
 5.10000000e-01  5.10000000e-01  5.00000000e-02  3.61551938e-08  3.61551938e-03 
 5.20000000e-01  5.20000000e-01  5.00000000e-02  4.62980035e-08  4.62980035e-03 
 5.30000000e-01  5.30000000e-01  5.00000000e-02  5.91073947e-08  5.91073947e-03 
 5.40000000e-01  5.40000000e-01  5.00000000e-02  7.52193052e-08  7.52193052e-03 
 5.50000000e-01  5.50000000e-01  5.00000000e-02  9.53975783e-08  9.53975783e-03 
 5.60000000e-01  5.60000000e-01  5.00000000e-02  1.20549444e-07  1.20549444e-02 
 5.70000000e-01  5.70000000e-01  5.00000000e-02  1.51737119e-07  1.51737119e-02 
 5.80000000e-01  5.80000000e-01  5.00000000e-02  1.90181606e-07  1.90181606e-02 
 5.90000000e-01  5.90000000e-01  5.00000000e-02  2.37253697e-07  2.37253697e-02 
 6.00000000e-01  6.00000000e-01  5.00000000e-02  2.94446773e-07  2.94446773e-02 
 6.10000000e-01  6.10000000e-01  5.00000000e-02  3.63327224e-07  3.63327224e-02 
 6.20000000e-01  6.20000000e-01  5.00000000e-02  4.45461712e-07  4.45461712e-02 
 6.30000000e-01  6.30000000e-01  5.00000000e-02  5.42326441e-07  5.42326441e-02 
 6.40000000e-01  6.40000000e-01  5.00000000e-02  6.55210278e-07  6.55210278e-02 
 6.50000000e-01  6.50000000e-01  5.00000000e-02  7.85128202e-07  7.85128202e-02 
 6.60000000e-01  6.60000000e-01  5.00000000e-02  9.32760884e-07  9.32760884e-02 
 6.70000000e-01  6.70000000e-01  5.00000000e-02  1.09842967e-06  1.09842967e-01 
 6.80000000e-01  6.80000000e-01  5.00000000e-02  1.28210697e-06  1.28210697e-01 
 6.90000000e-01  6.90000000e-01  5.00000000e-02  1.48345419e-06  1.48345419e-01 
 7.00000000e-01  7.00000000e-01  5.00000000e-02  1.70187612e-06  1.70187612e-01 
 7.10000000e-01  7.10000000e-01  5.00000000e-02  1.93658106e-06  1.93658106e-01 
 7.20000000e-01  7.20000000e-01  5.00000000e-02  2.18663903e-06  2.18663903e-01 
 7.30000000e-01  7.30000000e-01  5.00000000e-02  2.45103329e-06  2.45103329e-01 
 7.40000000e-01  7.40000000e-01  5.00000000e-02  2.72870320e-06  2.72870320e-01 
 7.50000000e-01  7.50000000e-01  5.00000000e-02  3.01857821e-06  3.01857821e-01 
 7.60000000e-01  7.60000000e-01  5.00000000e-02  3.31960351e-06  3.31960351e-01 
 7.70000000e-01  7.70000000e-01  5.00000000e-02  3.63075857e-06  3.63075857e-01 
 7.80000000e-01  7.80000000e-01  5.00000000e-02  3.95106989e-06  3.95106989e-01 
 7.90000000e-01  7.90000000e-01  5.00000000e-02  4.27961913e-06  4.27961913e-01 
 8.00000000e-01  8.00000000e-01  5.00000000e-02  4.61554778e-06  4.61554778e-01 
 8.10000000e-01  8.10000000e-01  5.00000000e-02  4.95805903e-06  4.95805903e-01 
 8.20000000e-01  8.20000000e-01  5.00000000e-02  5.30641786e-06  5.30641786e-01 
 8.30000000e-01  8.30000000e-01  5.00000000e-02  5.65994964e-06  5.65994964e-01 
 8.40000000e-01  8.40000000e-01  5.00000000e-02  6.01803782e-06  6.01803782e-01 
 8.50000000e-01  8.50000000e-01  5.00000000e-02  6.38012090e-06  6.38012090e-01 
 8.60000000e-01  8.60000000e-01  5.00000000e-02  6.74568913e-06  6.74568913e-01 
 8.70000000e-01  8.70000000e-01  5.00000000e-02  7.11428089e-06  7.11428089e-01 
 8.80000000e-01  8.80000000e-01  5.00000000e-02  7.48547904e-06  7.48547904e-01 
 8.90000000e-01  8.90000000e-01  5.00000000e-02  7.85890730e-06  7.85890730e-01 
 9.00000000e-01  9.00000000e-01  5.00000000e-02  8.23422671e-06  8.23422671e-01 
 9.10000000e-01  9.10000000e-01  5.00000000e-02  8.61113229e-06  8.61113229e-01 
 9.20000000e-01  9.20000000e-01  5.00000000e-02  8.98934984e-06  8.98934984e-01 
 9.30000000e-01  9.30000000e-01  5.00000000e-02  9.36863295e-06  9.36863295e-01 
 9.40000000e-01  9.40000000e-01  5.00000000e-02  9.74876027e-06  9.74876027e-01 
 9.50000000e-01  9.50000000e-01  5.00000000e-02  1.01295329e-05  1.01295329e+00 
 9.60000000e-01  9.60000000e-01  5.00000000e-02  1.05107723e-05  1.05107723e+00 
 9.70000000e-01  9.70000000e-01  5.00000000e-02  1.08923179e-05  1.08923179e+00 
 9.80000000e-01  9.80000000e-01  5.00000000e-02  1.12740253e-05  1.12740253e+00 
 9.90000000e-01  9.90000000e-01  5.00000000e-02  1.16557646e-05  1.16557646e+00 
 1.00000000e+00  1.00000000e+00  5.00000000e-02  1.20374188e-05  1.20374188e+00 
 1.01000000e+00  1.01000000e+00  5.00000000e-02  1.24188825e-05  1.24188825e+00 
 1.02000000e+00  1.02000000e+00  5.00000000e-02  1.28000605e-05  1.28000605e+00 
 1.03000000e+00  1.03000000e+00  5.00000000e-02  1.31808671e-05  1.31808671e+00 
 1.04000000e+00  1.04000000e+00  5.00000000e-02  1.35612243e-05  1.35612243e+00 
 1.05000000e+00  1.05000000e+00  5.00000000e-02  1.39410620e-05  1.39410620e+00 
 1.06000000e+00  1.06000000e+00  5.00000000e-02  1.43203162e-05  1.43203162e+00 
 1.07000000e+00  1.07000000e+00  5.00000000e-02  1.46989291e-05  1.46989291e+00 
 1.08000000e+00  1.08000000e+00  5.00000000e-02  1.50768480e-05  1.50768480e+00 
 1.09000000e+00  1.09000000e+00  5.00000000e-02  1.54540250e-05  1.54540250e+00 
 1.10000000e+00  1.10000000e+00  5.00000000e-02  1.58304162e-05  1.58304162e+00 
 1.11000000e+00  1.11000000e+00  5.00000000e-02  1.62059818e-05  1.62059818e+00 
 1.12000000e+00  1.12000000e+00  5.00000000e-02  1.65806852e-05  1.65806852e+00 
 1.13000000e+00  1.13000000e+00  5.00000000e-02  1.69544929e-05  1.69544929e+00 
 1.14000000e+00  1.14000000e+00  5.00000000e-02  1.73273742e-05  1.73273742e+00 
 1.15000000e+00  1.15000000e+00  5.00000000e-02  1.76993010e-05  1.76993010e+00 
 1.16000000e+00  1.16000000e+00  5.00000000e-02  1.80702471e-05  1.80702471e+00 
 1.17000000e+00  1.17000000e+00  5.00000000e-02  1.84401887e-05  1.84401887e+00 
 1.18000000e+00  1.18000000e+00  5.00000000e-02  1.88091036e-05  1.88091036e+00 
 1.19000000e+00  1.19000000e+00  5.00000000e-02  1.91769713e-05  1.91769713e+00 
 1.20000000e+00  1.20000000e+00  5.00000000e-02  1.95437730e-05  1.95437730e+00 
 1.21000000e+00  1.21000000e+00  5.00000000e-02  1.99094910e-05  1.99094910e+00 
 1.22000000e+00  1.22000000e+00  5.00000000e-02  2.02741089e-05  2.02741089e+00 
 1.23000000e+00  1.23000000e+00  5.00000000e-02  2.06376117e-05  2.06376117e+00 
 1.24000000e+00  1.24000000e+00  5.00000000e-02  2.09999851e-05  2.09999851e+00 
 1.25000000e+00  1.25000000e+00  5.00000000e-02  2.13612159e-05  2.13612159e+00 
 1.26000000e+00  1.26000000e+00  5.00000000e-02  2.17212917e-05  2.17212917e+00 
 1.27000000e+00  1.27000000e+00  5.00000000e-02  2.20802010e-05  2.20802010e+00 
 1.28000000e+00  1.28000000e+00  5.00000000e-02  2.24379329e-05  2.24379329e+00 
 1.29000000e+00  1.29000000e+00  5.00000000e-02  2.27944772e-05  2.27944772e+00 
 1.30000000e+00  1.30000000e+00  5.00000000e-02  2.31498244e-05  2.31498244e+00 
 1.31000000e+00  1.31000000e+00  5.00000000e-02  2.35039655e-05  2.35039655e+00 
 1.32000000e+00  1.32000000e+00  5.00000000e-02  2.38568919e-05  2.38568919e+00 
 1.33000000e+00  1.33000000e+00  5.00000000e-02  2.42085958e-05  2.42085958e+00 
 1.34000000e+00  1.34000000e+00  5.00000000e-02  2.45590694e-05  2.45590694e+00 
 1.35000000e+00  1.35000000e+00  5.00000000e-02  2.49083058e-05  2.49083058e+00 
 1.36000000e+00  1.36000000e+00  5.00000000e-02  2.52562981e-05  2.52562981e+00 
 1.37000000e+00  1.37000000e+00  5.00000000e-02  2.56030399e-05  2.56030399e+00 
 1.38000000e+00  1.38000000e+00  5.00000000e-02  2.59485253e-05  2.59485253e+00 
 1.39000000e+00  1.39000000e+00  5.00000000e-02  2.62927483e-05  2.62927483e+00 
 1.40000000e+00  1.40000000e+00  5.00000000e-02  2.66357037e-05  2.66357037e+00 
 1.41000000e+00  1.41000000e+00  5.00000000e-02  2.69773862e-05  2.69773862e+00 
 1.42000000e+00  1.42000000e+00  5.00000000e-02  2.73177909e-05  2.73177909e+00 
 1.43000000e+00  1.43000000e+00  5.00000000e-02  2.76569131e-05  2.76569131e+00 
 1.44000000e+00  1.44000000e+00  5.00000000e-02  2.79947484e-05  2.79947484e+00 
 1.45000000e+00  1.45000000e+00  5.00000000e-02  2.83312925e-05  2.83312925e+00 
 1.46000000e+00  1.46000000e+00  5.00000000e-02  2.86665415e-05  2.86665415e+00 
 1.47000000e+00  1.47000000e+00  5.00000000e-02  2.90004915e-05  2.90004915e+00 
 1.48000000e+00  1.48000000e+00  5.00000000e-02  2.93331390e-05  2.93331390e+00 
 1.49000000e+00  1.49000000e+00  5.00000000e-02  2.96644804e-05  2.96644804e+00 
 1.50000000e+00  1.50000000e+00  5.00000000e-02  2.99945124e-05  2.99945124e+00 
 1.51000000e+00  1.51000000e+00  5.00000000e-02  3.03232320e-05  3.03232320e+00 
 1.52000000e+00  1.52000000e+00  5.00000000e-02  3.06506362e-05  3.06506362e+00 
 1.53000000e+00  1.53000000e+00  5.00000000e-02  3.09767222e-05  3.09767222e+00 
 1.54000000e+00  1.54000000e+00  5.00000000e-02  3.13014874e-05  3.13014874e+00 
 1.55000000e+00  1.55000000e+00  5.00000000e-02  3.16249291e-05  3.16249291e+00 
 1.56000000e+00  1.56000000e+00  5.00000000e-02  3.19470451e-05  3.19470451e+00 
 1.57000000e+00  1.57000000e+00  5.00000000e-02  3.22678331e-05  3.22678331e+00 
 1.58000000e+00  1.58000000e+00  5.00000000e-02  3.25872909e-05  3.25872909e+00 
 1.59000000e+00  1.59000000e+00  5.00000000e-02  3.29054166e-05  3.29054166e+00 
 1.60000000e+00  1.60000000e+00  5.00000000e-02  3.32222082e-05  3.32222082e+00 
 1.61000000e+00  1.61000000e+00  5.00000000e-02  3.35376641e-05  3.35376641e+00 
 1.62000000e+00  1.62000000e+00  5.00000000e-02  3.38517825e-05  3.38517825e+00 
 1.63000000e+00  1.63000000e+00  5.00000000e-02  3.41645619e-05  3.41645619e+00 
 1.64000000e+00  1.64000000e+00  5.00000000e-02  3.44760010e-05  3.44760010e+00 
 1.65000000e+00  1.65000000e+00  5.00000000e-02  3.47860982e-05  3.47860982e+00 
 1.66000000e+00  1.66000000e+00  5.00000000e-02  3.50948525e-05  3.50948525e+00 
 1.67000000e+00  1.67000000e+00  5.00000000e-02  3.54022628e-05  3.54022628e+00 
 1.68000000e+00  1.68000000e+00  5.00000000e-02  3.57083278e-05  3.57083278e+00 
 1.69000000e+00  1.69000000e+00  5.00000000e-02  3.60130469e-05  3.60130469e+00 
 1.70000000e+00  1.70000000e+00  5.00000000e-02  3.63164190e-05  3.63164190e+00 
 1.71000000e+00  1.71000000e+00  5.00000000e-02  3.66184436e-05  3.66184436e+00 
 1.72000000e+00  1.72000000e+00  5.00000000e-02  3.69191198e-05  3.69191198e+00 
 1.73000000e+00  1.73000000e+00  5.00000000e-02  3.72184472e-05  3.72184472e+00 
 1.74000000e+00  1.74000000e+00  5.00000000e-02  3.75164253e-05  3.75164253e+00 
 1.75000000e+00  1.75000000e+00  5.00000000e-02  3.78130537e-05  3.78130537e+00 
 1.76000000e+00  1.76000000e+00  5.00000000e-02  3.81083320e-05  3.81083320e+00 
 1.77000000e+00  1.77000000e+00  5.00000000e-02  3.84022602e-05  3.84022602e+00 
 1.78000000e+00  1.78000000e+00  5.00000000e-02  3.86948379e-05  3.86948379e+00 
 1.79000000e+00  1.79000000e+00  5.00000000e-02  3.89860653e-05  3.89860653e+00 
 1.80000000e+00  1.80000000e+00  5.00000000e-02  3.92759422e-05  3.92759422e+00 
 1.81000000e+00  1.81000000e+00  5.00000000e-02  3.95644688e-05  3.95644688e+00 
 1.82000000e+00  1.82000000e+00  5.00000000e-02  3.98516452e-05  3.98516452e+00 
 1.83000000e+00  1.83000000e+00  5.00000000e-02  4.01374718e-05  4.01374718e+00 
 1.84000000e+00  1.84000000e+00  5.00000000e-02  4.04219488e-05  4.04219488e+00 
 1.85000000e+00  1.85000000e+00  5.00000000e-02  4.07050766e-05  4.07050766e+00 
 1.86000000e+00  1.86000000e+00  5.00000000e-02  4.09868557e-05  4.09868557e+00 
 1.87000000e+00  1.87000000e+00  5.00000000e-02  4.12672867e-05  4.12672867e+00 
 1.88000000e+00  1.88000000e+00  5.00000000e-02  4.15463700e-05  4.15463700e+00 
 1.89000000e+00  1.89000000e+00  5.00000000e-02  4.18241066e-05  4.18241066e+00 
 1.90000000e+00  1.90000000e+00  5.00000000e-02  4.21004970e-05  4.21004970e+00 
 1.91000000e+00  1.91000000e+00  5.00000000e-02  4.23755420e-05  4.23755420e+00 
 1.92000000e+00  1.92000000e+00  5.00000000e-02  4.26492427e-05  4.26492427e+00 
 1.93000000e+00  1.93000000e+00  5.00000000e-02  4.29215998e-05  4.29215998e+00 
 1.94000000e+00  1.94000000e+00  5.00000000e-02  4.31926145e-05  4.31926145e+00 
 1.95000000e+00  1.95000000e+00  5.00000000e-02  4.34622877e-05  4.34622877e+00 
 1.96000000e+00  1.96000000e+00  5.00000000e-02  4.37306207e-05  4.37306207e+00 
 1.97000000e+00  1.97000000e+00  5.00000000e-02  4.39976146e-05  4.39976146e+00 
 1.98000000e+00  1.98000000e+00  5.00000000e-02  4.42632707e-05  4.42632707e+00 
 1.99000000e+00  1.99000000e+00  5.00000000e-02  4.45275903e-05  4.45275903e+00 
 2.00000000e+00  2.00000000e+00  5.00000000e-02  4.47905747e-05  4.47905747e+00 
 2.01000000e+00  2.01000000e+00  5.00000000e-02  4.50522254e-05  4.50522254e+00 
 2.02000000e+00  2.02000000e+00  5.00000000e-02  4.53125439e-05  4.53125439e+00 
 2.03000000e+00  2.03000000e+00  5.00000000e-02  4.55715318e-05  4.55715318e+00 
 2.04000000e+00  2.04000000e+00  5.00000000e-02  4.58291906e-05  4.58291906e+00 
 2.05000000e+00  2.05000000e+00  5.00000000e-02  4.60855219e-05  4.60855219e+00 
 2.06000000e+00  2.06000000e+00  5.00000000e-02  4.63405276e-05  4.63405276e+00 
 2.07000000e+00  2.07000000e+00  5.00000000e-02  4.65942093e-05  4.65942093e+00 
 2.08000000e+00  2.08000000e+00  5.00000000e-02  4.68465689e-05  4.68465689e+00 
 2.09000000e+00  2.09000000e+00  5.00000000e-02  4.70976082e-05  4.70976082e+00 
 2.10000000e+00  2.10000000e+00  5.00000000e-02  4.73473292e-05  4.73473292e+00 
 2.11000000e+00  2.11000000e+00  5.00000000e-02  4.75957339e-05  4.75957339e+00 
 2.12000000e+00  2.12000000e+00  5.00000000e-02  4.78428241e-05  4.78428241e+00 
 2.13000000e+00  2.13000000e+00  5.00000000e-02  4.80886021e-05  4.80886021e+00 
 2.14000000e+00  2.14000000e+00  5.00000000e-02  4.83330699e-05  4.83330699e+00 
 2.15000000e+00  2.15000000e+00  5.00000000e-02  4.85762296e-05  4.85762296e+00 
 2.16000000e+00  2.16000000e+00  5.00000000e-02  4.88180836e-05  4.88180836e+00 
 2.17000000e+00  2.17000000e+00  5.00000000e-02  4.90586340e-05  4.90586340e+00 
 2.18000000e+00  2.18000000e+00  5.00000000e-02  4.92978831e-05  4.92978831e+00 
 2.19000000e+00  2.19000000e+00  5.00000000e-02  4.95358332e-05  4.95358332e+00 
 2.20000000e+00  2.20000000e+00  5.00000000e-02  4.97724868e-05  4.97724868e+00 
 2.21000000e+00  2.21000000e+00  5.00000000e-02  5.00078463e-05  5.00078463e+00 
 2.22000000e+00  2.22000000e+00  5.00000000e-02  5.02419142e-05  5.02419142e+00 
 2.23000000e+00  2.23000000e+00  5.00000000e-02  5.04746928e-05  5.04746928e+00 
 2.24000000e+00  2.24000000e+00  5.00000000e-02  5.07061849e-05  5.07061849e+00 
 2.25000000e+00  2.25000000e+00  5.00000000e-02  5.09363930e-05  5.09363930e+00 
 2.26000000e+00  2.26000000e+00  5.00000000e-02  5.11653197e-05  5.11653197e+00 
 2.27000000e+00  2.27000000e+00  5.00000000e-02  5.13929677e-05  5.13929677e+00 
 2.28000000e+00  2.28000000e+00  5.00000000e-02  5.16193396e-05  5.16193396e+00 
 2.29000000e+00  2.29000000e+00  5.00000000e-02  5.18444384e-05  5.18444384e+00 
 2.30000000e+00  2.30000000e+00  5.00000000e-02  5.20682666e-05  5.20682666e+00 
 2.31000000e+00  2.31000000e+00  5.00000000e-02  5.22908271e-05  5.22908271e+00 
 2.32000000e+00  2.32000000e+00  5.00000000e-02  5.25121229e-05  5.25121229e+00 
 2.33000000e+00  2.33000000e+00  5.00000000e-02  5.27321567e-05  5.27321567e+00 
 2.34000000e+00  2.34000000e+00  5.00000000e-02  5.29509314e-05  5.29509314e+00 
 2.35000000e+00  2.35000000e+00  5.00000000e-02  5.31684502e-05  5.31684502e+00 
 2.36000000e+00  2.36000000e+00  5.00000000e-02  5.33847158e-05  5.33847158e+00 
 2.37000000e+00  2.37000000e+00  5.00000000e-02  5.35997314e-05  5.35997314e+00 
 2.38000000e+00  2.38000000e+00  5.00000000e-02  5.38135000e-05  5.38135000e+00 
 2.39000000e+00  2.39000000e+00  5.00000000e-02  5.40260247e-05  5.40260247e+00 
 2.40000000e+00  2.40000000e+00  5.00000000e-02  5.42373085e-05  5.42373085e+00 
 2.41000000e+00  2.41000000e+00  5.00000000e-02  5.44473547e-05  5.44473547e+00 
 2.42000000e+00  2.42000000e+00  5.00000000e-02  5.46561664e-05  5.46561664e+00 
 2.43000000e+00  2.43000000e+00  5.00000000e-02  5.48637468e-05  5.48637468e+00 
 2.44000000e+00  2.44000000e+00  5.00000000e-02  5.50700991e-05  5.50700991e+00 
