 v-sweep         vgs_out         vds_out         id              id_w           
 0.00000000e+00  0.00000000e+00  5.00000000e-02  4.46953057e-13  4.46953057e-08 
 1.00000000e-02  1.00000000e-02  5.00000000e-02  5.57755077e-13  5.57755077e-08 
 2.00000000e-02  2.00000000e-02  5.00000000e-02  7.43893659e-13  7.43893659e-08 
 3.00000000e-02  3.00000000e-02  5.00000000e-02  9.67149817e-13  9.67149817e-08 
 4.00000000e-02  4.00000000e-02  5.00000000e-02  1.26232816e-12  1.26232816e-07 
 5.00000000e-02  5.00000000e-02  5.00000000e-02  1.65250327e-12  1.65250327e-07 
 6.00000000e-02  6.00000000e-02  5.00000000e-02  2.16807410e-12  2.16807410e-07 
 7.00000000e-02  7.00000000e-02  5.00000000e-02  2.84924218e-12  2.84924218e-07 
 8.00000000e-02  8.00000000e-02  5.00000000e-02  3.74937092e-12  3.74937092e-07 
 9.00000000e-02  9.00000000e-02  5.00000000e-02  4.93851009e-12  4.93851009e-07 
 1.00000000e-01  1.00000000e-01  5.00000000e-02  6.50945365e-12  6.50945365e-07 
 1.10000000e-01  1.10000000e-01  5.00000000e-02  8.58467856e-12  8.58467856e-07 
 1.20000000e-01  1.20000000e-01  5.00000000e-02  1.13258170e-11  1.13258170e-06 
 1.30000000e-01  1.30000000e-01  5.00000000e-02  1.49461023e-11  1.49461023e-06 
 1.40000000e-01  1.40000000e-01  5.00000000e-02  1.97271103e-11  1.97271103e-06 
 1.50000000e-01  1.50000000e-01  5.00000000e-02  2.60406227e-11  2.60406227e-06 
 1.60000000e-01  1.60000000e-01  5.00000000e-02  3.43765472e-11  3.43765472e-06 
 1.70000000e-01  1.70000000e-01  5.00000000e-02  4.53817431e-11  4.53817431e-06 
 1.80000000e-01  1.80000000e-01  5.00000000e-02  5.99087580e-11  5.99087580e-06 
 1.90000000e-01  1.90000000e-01  5.00000000e-02  7.90822436e-11  7.90822436e-06 
 2.00000000e-01  2.00000000e-01  5.00000000e-02  1.04384425e-10  1.04384425e-05 
 2.10000000e-01  2.10000000e-01  5.00000000e-02  1.37768600e-10  1.37768600e-05 
 2.20000000e-01  2.20000000e-01  5.00000000e-02  1.81807942e-10  1.81807942e-05 
 2.30000000e-01  2.30000000e-01  5.00000000e-02  2.39891110e-10  2.39891110e-05 
 2.40000000e-01  2.40000000e-01  5.00000000e-02  3.16478711e-10  3.16478711e-05 
 2.50000000e-01  2.50000000e-01  5.00000000e-02  4.17439562e-10  4.17439562e-05 
 2.60000000e-01  2.60000000e-01  5.00000000e-02  5.50490429e-10  5.50490429e-05 
 2.70000000e-01  2.70000000e-01  5.00000000e-02  7.25773112e-10  7.25773112e-05 
 2.80000000e-01  2.80000000e-01  5.00000000e-02  9.56605055e-10  9.56605055e-05 
 2.90000000e-01  2.90000000e-01  5.00000000e-02  1.26046120e-09  1.26046120e-04 
 3.00000000e-01  3.00000000e-01  5.00000000e-02  1.66024893e-09  1.66024893e-04 
 3.10000000e-01  3.10000000e-01  5.00000000e-02  2.18596663e-09  2.18596663e-04 
 3.20000000e-01  3.20000000e-01  5.00000000e-02  2.87684950e-09  2.87684950e-04 
 3.30000000e-01  3.30000000e-01  5.00000000e-02  3.78414325e-09  3.78414325e-04 
 3.40000000e-01  3.40000000e-01  5.00000000e-02  4.97467499e-09  4.97467499e-04 
 3.50000000e-01  3.50000000e-01  5.00000000e-02  6.53543329e-09  6.53543329e-04 
 3.60000000e-01  3.60000000e-01  5.00000000e-02  8.57941975e-09  8.57941975e-04 
 3.70000000e-01  3.70000000e-01  5.00000000e-02  1.12530872e-08  1.12530872e-03 
 3.80000000e-01  3.80000000e-01  5.00000000e-02  1.47457446e-08  1.47457446e-03 
 3.90000000e-01  3.90000000e-01  5.00000000e-02  1.93013743e-08  1.93013743e-03 
 4.00000000e-01  4.00000000e-01  5.00000000e-02  2.52333798e-08  2.52333798e-03 
 4.10000000e-01  4.10000000e-01  5.00000000e-02  3.29428464e-08  3.29428464e-03 
 4.20000000e-01  4.20000000e-01  5.00000000e-02  4.29409584e-08  4.29409584e-03 
 4.30000000e-01  4.30000000e-01  5.00000000e-02  5.58762569e-08  5.58762569e-03 
 4.40000000e-01  4.40000000e-01  5.00000000e-02  7.25674345e-08  7.25674345e-03 
 4.50000000e-01  4.50000000e-01  5.00000000e-02  9.40423379e-08  9.40423379e-03 
 4.60000000e-01  4.60000000e-01  5.00000000e-02  1.21583760e-07  1.21583760e-02 
 4.70000000e-01  4.70000000e-01  5.00000000e-02  1.56782437e-07  1.56782437e-02 
 4.80000000e-01  4.80000000e-01  5.00000000e-02  2.01597374e-07  2.01597374e-02 
 4.90000000e-01  4.90000000e-01  5.00000000e-02  2.58423159e-07  2.58423159e-02 
 5.00000000e-01  5.00000000e-01  5.00000000e-02  3.30163152e-07  3.30163152e-02 
 5.10000000e-01  5.10000000e-01  5.00000000e-02  4.20306285e-07  4.20306285e-02 
 5.20000000e-01  5.20000000e-01  5.00000000e-02  5.33003385e-07  5.33003385e-02 
 5.30000000e-01  5.30000000e-01  5.00000000e-02  6.73136388e-07  6.73136388e-02 
 5.40000000e-01  5.40000000e-01  5.00000000e-02  8.46370519e-07  8.46370519e-02 
 5.50000000e-01  5.50000000e-01  5.00000000e-02  1.05917575e-06  1.05917575e-01 
 5.60000000e-01  5.60000000e-01  5.00000000e-02  1.31880062e-06  1.31880062e-01 
 5.70000000e-01  5.70000000e-01  5.00000000e-02  1.63318018e-06  1.63318018e-01 
 5.80000000e-01  5.80000000e-01  5.00000000e-02  2.01076245e-06  2.01076245e-01 
 5.90000000e-01  5.90000000e-01  5.00000000e-02  2.46024579e-06  2.46024579e-01 
 6.00000000e-01  6.00000000e-01  5.00000000e-02  2.99023314e-06  2.99023314e-01 
 6.10000000e-01  6.10000000e-01  5.00000000e-02  3.60882648e-06  3.60882648e-01 
 6.20000000e-01  6.20000000e-01  5.00000000e-02  4.32320158e-06  4.32320158e-01 
 6.30000000e-01  6.30000000e-01  5.00000000e-02  5.13921362e-06  5.13921362e-01 
 6.40000000e-01  6.40000000e-01  5.00000000e-02  6.06108389e-06  6.06108389e-01 
 6.50000000e-01  6.50000000e-01  5.00000000e-02  7.09120614e-06  7.09120614e-01 
 6.60000000e-01  6.60000000e-01  5.00000000e-02  8.23009034e-06  8.23009034e-01 
 6.70000000e-01  6.70000000e-01  5.00000000e-02  9.47643823e-06  9.47643823e-01 
 6.80000000e-01  6.80000000e-01  5.00000000e-02  1.08273265e-05  1.08273265e+00 
 6.90000000e-01  6.90000000e-01  5.00000000e-02  1.22784617e-05  1.22784617e+00 
 7.00000000e-01  7.00000000e-01  5.00000000e-02  1.38244707e-05  1.38244707e+00 
 7.10000000e-01  7.10000000e-01  5.00000000e-02  1.54591931e-05  1.54591931e+00 
 7.20000000e-01  7.20000000e-01  5.00000000e-02  1.71759537e-05  1.71759537e+00 
 7.30000000e-01  7.30000000e-01  5.00000000e-02  1.89678009e-05  1.89678009e+00 
 7.40000000e-01  7.40000000e-01  5.00000000e-02  2.08277043e-05  2.08277043e+00 
 7.50000000e-01  7.50000000e-01  5.00000000e-02  2.27487119e-05  2.27487119e+00 
 7.60000000e-01  7.60000000e-01  5.00000000e-02  2.47240699e-05  2.47240699e+00 
 7.70000000e-01  7.70000000e-01  5.00000000e-02  2.67473103e-05  2.67473103e+00 
 7.80000000e-01  7.80000000e-01  5.00000000e-02  2.88123107e-05  2.88123107e+00 
 7.90000000e-01  7.90000000e-01  5.00000000e-02  3.09133321e-05  3.09133321e+00 
 8.00000000e-01  8.00000000e-01  5.00000000e-02  3.30450404e-05  3.30450404e+00 
 8.10000000e-01  8.10000000e-01  5.00000000e-02  3.52025121e-05  3.52025121e+00 
 8.20000000e-01  8.20000000e-01  5.00000000e-02  3.73812323e-05  3.73812323e+00 
 8.30000000e-01  8.30000000e-01  5.00000000e-02  3.95770826e-05  3.95770826e+00 
 8.40000000e-01  8.40000000e-01  5.00000000e-02  4.17863257e-05  4.17863257e+00 
 8.50000000e-01  8.50000000e-01  5.00000000e-02  4.40055843e-05  4.40055843e+00 
 8.60000000e-01  8.60000000e-01  5.00000000e-02  4.62318191e-05  4.62318191e+00 
 8.70000000e-01  8.70000000e-01  5.00000000e-02  4.84623050e-05  4.84623050e+00 
 8.80000000e-01  8.80000000e-01  5.00000000e-02  5.06946064e-05  5.06946064e+00 
 8.90000000e-01  8.90000000e-01  5.00000000e-02  5.29265534e-05  5.29265534e+00 
 9.00000000e-01  9.00000000e-01  5.00000000e-02  5.51562188e-05  5.51562188e+00 
 9.10000000e-01  9.10000000e-01  5.00000000e-02  5.73818951e-05  5.73818951e+00 
 9.20000000e-01  9.20000000e-01  5.00000000e-02  5.96020738e-05  5.96020738e+00 
 9.30000000e-01  9.30000000e-01  5.00000000e-02  6.18154257e-05  6.18154257e+00 
 9.40000000e-01  9.40000000e-01  5.00000000e-02  6.40207827e-05  6.40207827e+00 
 9.50000000e-01  9.50000000e-01  5.00000000e-02  6.62171210e-05  6.62171210e+00 
 9.60000000e-01  9.60000000e-01  5.00000000e-02  6.84035457e-05  6.84035457e+00 
 9.70000000e-01  9.70000000e-01  5.00000000e-02  7.05792772e-05  7.05792772e+00 
 9.80000000e-01  9.80000000e-01  5.00000000e-02  7.27436383e-05  7.27436383e+00 
 9.90000000e-01  9.90000000e-01  5.00000000e-02  7.48960435e-05  7.48960435e+00 
 1.00000000e+00  1.00000000e+00  5.00000000e-02  7.70359880e-05  7.70359880e+00 
 1.01000000e+00  1.01000000e+00  5.00000000e-02  7.91630394e-05  7.91630394e+00 
 1.02000000e+00  1.02000000e+00  5.00000000e-02  8.12768291e-05  8.12768291e+00 
 1.03000000e+00  1.03000000e+00  5.00000000e-02  8.33770453e-05  8.33770453e+00 
 1.04000000e+00  1.04000000e+00  5.00000000e-02  8.54634265e-05  8.54634265e+00 
 1.05000000e+00  1.05000000e+00  5.00000000e-02  8.75357556e-05  8.75357556e+00 
 1.06000000e+00  1.06000000e+00  5.00000000e-02  8.95938551e-05  8.95938551e+00 
 1.07000000e+00  1.07000000e+00  5.00000000e-02  9.16375823e-05  9.16375823e+00 
 1.08000000e+00  1.08000000e+00  5.00000000e-02  9.36668257e-05  9.36668257e+00 
 1.09000000e+00  1.09000000e+00  5.00000000e-02  9.56815008e-05  9.56815008e+00 
 1.10000000e+00  1.10000000e+00  5.00000000e-02  9.76815475e-05  9.76815475e+00 
 1.11000000e+00  1.11000000e+00  5.00000000e-02  9.96669269e-05  9.96669269e+00 
 1.12000000e+00  1.12000000e+00  5.00000000e-02  1.01637619e-04  1.01637619e+01 
 1.13000000e+00  1.13000000e+00  5.00000000e-02  1.03593621e-04  1.03593621e+01 
 1.14000000e+00  1.14000000e+00  5.00000000e-02  1.05534945e-04  1.05534945e+01 
 1.15000000e+00  1.15000000e+00  5.00000000e-02  1.07461614e-04  1.07461614e+01 
 1.16000000e+00  1.16000000e+00  5.00000000e-02  1.09373665e-04  1.09373665e+01 
 1.17000000e+00  1.17000000e+00  5.00000000e-02  1.11271143e-04  1.11271143e+01 
 1.18000000e+00  1.18000000e+00  5.00000000e-02  1.13154105e-04  1.13154105e+01 
 1.19000000e+00  1.19000000e+00  5.00000000e-02  1.15022611e-04  1.15022611e+01 
 1.20000000e+00  1.20000000e+00  5.00000000e-02  1.16876733e-04  1.16876733e+01 
 1.21000000e+00  1.21000000e+00  5.00000000e-02  1.18716544e-04  1.18716544e+01 
 1.22000000e+00  1.22000000e+00  5.00000000e-02  1.20542126e-04  1.20542126e+01 
 1.23000000e+00  1.23000000e+00  5.00000000e-02  1.22353563e-04  1.22353563e+01 
 1.24000000e+00  1.24000000e+00  5.00000000e-02  1.24150945e-04  1.24150945e+01 
 1.25000000e+00  1.25000000e+00  5.00000000e-02  1.25934364e-04  1.25934364e+01 
 1.26000000e+00  1.26000000e+00  5.00000000e-02  1.27703915e-04  1.27703915e+01 
 1.27000000e+00  1.27000000e+00  5.00000000e-02  1.29459695e-04  1.29459695e+01 
 1.28000000e+00  1.28000000e+00  5.00000000e-02  1.31201804e-04  1.31201804e+01 
 1.29000000e+00  1.29000000e+00  5.00000000e-02  1.32930344e-04  1.32930344e+01 
 1.30000000e+00  1.30000000e+00  5.00000000e-02  1.34645417e-04  1.34645417e+01 
 1.31000000e+00  1.31000000e+00  5.00000000e-02  1.36347127e-04  1.36347127e+01 
 1.32000000e+00  1.32000000e+00  5.00000000e-02  1.38035579e-04  1.38035579e+01 
 1.33000000e+00  1.33000000e+00  5.00000000e-02  1.39710879e-04  1.39710879e+01 
 1.34000000e+00  1.34000000e+00  5.00000000e-02  1.41373132e-04  1.41373132e+01 
 1.35000000e+00  1.35000000e+00  5.00000000e-02  1.43022444e-04  1.43022444e+01 
 1.36000000e+00  1.36000000e+00  5.00000000e-02  1.44658924e-04  1.44658924e+01 
 1.37000000e+00  1.37000000e+00  5.00000000e-02  1.46282676e-04  1.46282676e+01 
 1.38000000e+00  1.38000000e+00  5.00000000e-02  1.47893807e-04  1.47893807e+01 
 1.39000000e+00  1.39000000e+00  5.00000000e-02  1.49492425e-04  1.49492425e+01 
 1.40000000e+00  1.40000000e+00  5.00000000e-02  1.51078634e-04  1.51078634e+01 
 1.41000000e+00  1.41000000e+00  5.00000000e-02  1.52652540e-04  1.52652540e+01 
 1.42000000e+00  1.42000000e+00  5.00000000e-02  1.54214250e-04  1.54214250e+01 
 1.43000000e+00  1.43000000e+00  5.00000000e-02  1.55763867e-04  1.55763867e+01 
 1.44000000e+00  1.44000000e+00  5.00000000e-02  1.57301497e-04  1.57301497e+01 
 1.45000000e+00  1.45000000e+00  5.00000000e-02  1.58827242e-04  1.58827242e+01 
 1.46000000e+00  1.46000000e+00  5.00000000e-02  1.60341205e-04  1.60341205e+01 
 1.47000000e+00  1.47000000e+00  5.00000000e-02  1.61843490e-04  1.61843490e+01 
 1.48000000e+00  1.48000000e+00  5.00000000e-02  1.63334198e-04  1.63334198e+01 
 1.49000000e+00  1.49000000e+00  5.00000000e-02  1.64813429e-04  1.64813429e+01 
 1.50000000e+00  1.50000000e+00  5.00000000e-02  1.66281284e-04  1.66281284e+01 
 1.51000000e+00  1.51000000e+00  5.00000000e-02  1.67737862e-04  1.67737862e+01 
 1.52000000e+00  1.52000000e+00  5.00000000e-02  1.69183261e-04  1.69183261e+01 
 1.53000000e+00  1.53000000e+00  5.00000000e-02  1.70617581e-04  1.70617581e+01 
 1.54000000e+00  1.54000000e+00  5.00000000e-02  1.72040917e-04  1.72040917e+01 
 1.55000000e+00  1.55000000e+00  5.00000000e-02  1.73453365e-04  1.73453365e+01 
 1.56000000e+00  1.56000000e+00  5.00000000e-02  1.74855021e-04  1.74855021e+01 
 1.57000000e+00  1.57000000e+00  5.00000000e-02  1.76245980e-04  1.76245980e+01 
 1.58000000e+00  1.58000000e+00  5.00000000e-02  1.77626334e-04  1.77626334e+01 
 1.59000000e+00  1.59000000e+00  5.00000000e-02  1.78996177e-04  1.78996177e+01 
 1.60000000e+00  1.60000000e+00  5.00000000e-02  1.80355600e-04  1.80355600e+01 
 1.61000000e+00  1.61000000e+00  5.00000000e-02  1.81704694e-04  1.81704694e+01 
 1.62000000e+00  1.62000000e+00  5.00000000e-02  1.83043550e-04  1.83043550e+01 
 1.63000000e+00  1.63000000e+00  5.00000000e-02  1.84372256e-04  1.84372256e+01 
 1.64000000e+00  1.64000000e+00  5.00000000e-02  1.85690902e-04  1.85690902e+01 
 1.65000000e+00  1.65000000e+00  5.00000000e-02  1.86999574e-04  1.86999574e+01 
 1.66000000e+00  1.66000000e+00  5.00000000e-02  1.88298359e-04  1.88298359e+01 
 1.67000000e+00  1.67000000e+00  5.00000000e-02  1.89587342e-04  1.89587342e+01 
 1.68000000e+00  1.68000000e+00  5.00000000e-02  1.90866610e-04  1.90866610e+01 
 1.69000000e+00  1.69000000e+00  5.00000000e-02  1.92136246e-04  1.92136246e+01 
 1.70000000e+00  1.70000000e+00  5.00000000e-02  1.93396334e-04  1.93396334e+01 
 1.71000000e+00  1.71000000e+00  5.00000000e-02  1.94646955e-04  1.94646955e+01 
 1.72000000e+00  1.72000000e+00  5.00000000e-02  1.95888192e-04  1.95888192e+01 
 1.73000000e+00  1.73000000e+00  5.00000000e-02  1.97120125e-04  1.97120125e+01 
 1.74000000e+00  1.74000000e+00  5.00000000e-02  1.98342834e-04  1.98342834e+01 
 1.75000000e+00  1.75000000e+00  5.00000000e-02  1.99556399e-04  1.99556399e+01 
 1.76000000e+00  1.76000000e+00  5.00000000e-02  2.00760898e-04  2.00760898e+01 
 1.77000000e+00  1.77000000e+00  5.00000000e-02  2.01956409e-04  2.01956409e+01 
 1.78000000e+00  1.78000000e+00  5.00000000e-02  2.03143008e-04  2.03143008e+01 
 1.79000000e+00  1.79000000e+00  5.00000000e-02  2.04320771e-04  2.04320771e+01 
 1.80000000e+00  1.80000000e+00  5.00000000e-02  2.05489774e-04  2.05489774e+01 
 1.81000000e+00  1.81000000e+00  5.00000000e-02  2.06650092e-04  2.06650092e+01 
 1.82000000e+00  1.82000000e+00  5.00000000e-02  2.07801798e-04  2.07801798e+01 
 1.83000000e+00  1.83000000e+00  5.00000000e-02  2.08944965e-04  2.08944965e+01 
 1.84000000e+00  1.84000000e+00  5.00000000e-02  2.10079666e-04  2.10079666e+01 
 1.85000000e+00  1.85000000e+00  5.00000000e-02  2.11205971e-04  2.11205971e+01 
 1.86000000e+00  1.86000000e+00  5.00000000e-02  2.12323953e-04  2.12323953e+01 
 1.87000000e+00  1.87000000e+00  5.00000000e-02  2.13433680e-04  2.13433680e+01 
 1.88000000e+00  1.88000000e+00  5.00000000e-02  2.14535223e-04  2.14535223e+01 
 1.89000000e+00  1.89000000e+00  5.00000000e-02  2.15628651e-04  2.15628651e+01 
 1.90000000e+00  1.90000000e+00  5.00000000e-02  2.16714030e-04  2.16714030e+01 
 1.91000000e+00  1.91000000e+00  5.00000000e-02  2.17791429e-04  2.17791429e+01 
 1.92000000e+00  1.92000000e+00  5.00000000e-02  2.18860914e-04  2.18860914e+01 
 1.93000000e+00  1.93000000e+00  5.00000000e-02  2.19922552e-04  2.19922552e+01 
 1.94000000e+00  1.94000000e+00  5.00000000e-02  2.20976407e-04  2.20976407e+01 
 1.95000000e+00  1.95000000e+00  5.00000000e-02  2.22022544e-04  2.22022544e+01 
 1.96000000e+00  1.96000000e+00  5.00000000e-02  2.23061028e-04  2.23061028e+01 
 1.97000000e+00  1.97000000e+00  5.00000000e-02  2.24091921e-04  2.24091921e+01 
 1.98000000e+00  1.98000000e+00  5.00000000e-02  2.25115286e-04  2.25115286e+01 
 1.99000000e+00  1.99000000e+00  5.00000000e-02  2.26131187e-04  2.26131187e+01 
 2.00000000e+00  2.00000000e+00  5.00000000e-02  2.27139683e-04  2.27139683e+01 
 2.01000000e+00  2.01000000e+00  5.00000000e-02  2.28140836e-04  2.28140836e+01 
 2.02000000e+00  2.02000000e+00  5.00000000e-02  2.29134706e-04  2.29134706e+01 
 2.03000000e+00  2.03000000e+00  5.00000000e-02  2.30121353e-04  2.30121353e+01 
 2.04000000e+00  2.04000000e+00  5.00000000e-02  2.31100836e-04  2.31100836e+01 
 2.05000000e+00  2.05000000e+00  5.00000000e-02  2.32073214e-04  2.32073214e+01 
 2.06000000e+00  2.06000000e+00  5.00000000e-02  2.33038543e-04  2.33038543e+01 
 2.07000000e+00  2.07000000e+00  5.00000000e-02  2.33996883e-04  2.33996883e+01 
 2.08000000e+00  2.08000000e+00  5.00000000e-02  2.34948289e-04  2.34948289e+01 
 2.09000000e+00  2.09000000e+00  5.00000000e-02  2.35892818e-04  2.35892818e+01 
 2.10000000e+00  2.10000000e+00  5.00000000e-02  2.36830525e-04  2.36830525e+01 
 2.11000000e+00  2.11000000e+00  5.00000000e-02  2.37761466e-04  2.37761466e+01 
 2.12000000e+00  2.12000000e+00  5.00000000e-02  2.38685694e-04  2.38685694e+01 
 2.13000000e+00  2.13000000e+00  5.00000000e-02  2.39603265e-04  2.39603265e+01 
 2.14000000e+00  2.14000000e+00  5.00000000e-02  2.40514232e-04  2.40514232e+01 
 2.15000000e+00  2.15000000e+00  5.00000000e-02  2.41418647e-04  2.41418647e+01 
 2.16000000e+00  2.16000000e+00  5.00000000e-02  2.42316563e-04  2.42316563e+01 
 2.17000000e+00  2.17000000e+00  5.00000000e-02  2.43208032e-04  2.43208032e+01 
 2.18000000e+00  2.18000000e+00  5.00000000e-02  2.44093105e-04  2.44093105e+01 
 2.19000000e+00  2.19000000e+00  5.00000000e-02  2.44971835e-04  2.44971835e+01 
 2.20000000e+00  2.20000000e+00  5.00000000e-02  2.45844269e-04  2.45844269e+01 
 2.21000000e+00  2.21000000e+00  5.00000000e-02  2.46710460e-04  2.46710460e+01 
 2.22000000e+00  2.22000000e+00  5.00000000e-02  2.47570456e-04  2.47570456e+01 
 2.23000000e+00  2.23000000e+00  5.00000000e-02  2.48424307e-04  2.48424307e+01 
 2.24000000e+00  2.24000000e+00  5.00000000e-02  2.49272060e-04  2.49272060e+01 
 2.25000000e+00  2.25000000e+00  5.00000000e-02  2.50113764e-04  2.50113764e+01 
 2.26000000e+00  2.26000000e+00  5.00000000e-02  2.50949467e-04  2.50949467e+01 
 2.27000000e+00  2.27000000e+00  5.00000000e-02  2.51779216e-04  2.51779216e+01 
 2.28000000e+00  2.28000000e+00  5.00000000e-02  2.52603057e-04  2.52603057e+01 
 2.29000000e+00  2.29000000e+00  5.00000000e-02  2.53421036e-04  2.53421036e+01 
 2.30000000e+00  2.30000000e+00  5.00000000e-02  2.54233200e-04  2.54233200e+01 
 2.31000000e+00  2.31000000e+00  5.00000000e-02  2.55039594e-04  2.55039594e+01 
 2.32000000e+00  2.32000000e+00  5.00000000e-02  2.55840263e-04  2.55840263e+01 
 2.33000000e+00  2.33000000e+00  5.00000000e-02  2.56635251e-04  2.56635251e+01 
 2.34000000e+00  2.34000000e+00  5.00000000e-02  2.57424602e-04  2.57424602e+01 
 2.35000000e+00  2.35000000e+00  5.00000000e-02  2.58208360e-04  2.58208360e+01 
 2.36000000e+00  2.36000000e+00  5.00000000e-02  2.58986569e-04  2.58986569e+01 
 2.37000000e+00  2.37000000e+00  5.00000000e-02  2.59759271e-04  2.59759271e+01 
 2.38000000e+00  2.38000000e+00  5.00000000e-02  2.60526508e-04  2.60526508e+01 
 2.39000000e+00  2.39000000e+00  5.00000000e-02  2.61288323e-04  2.61288323e+01 
 2.40000000e+00  2.40000000e+00  5.00000000e-02  2.62044758e-04  2.62044758e+01 
 2.41000000e+00  2.41000000e+00  5.00000000e-02  2.62795853e-04  2.62795853e+01 
 2.42000000e+00  2.42000000e+00  5.00000000e-02  2.63541649e-04  2.63541649e+01 
 2.43000000e+00  2.43000000e+00  5.00000000e-02  2.64282188e-04  2.64282188e+01 
 2.44000000e+00  2.44000000e+00  5.00000000e-02  2.65017509e-04  2.65017509e+01 
